  can1  000023F0   [8]  00 B5 11 00 02 01 02 04
  can1  000023F0   [8]  04 03 04 07 05 04 04 00
  can1  000023F0   [8]  01 02 77 00 01 02 03 11
  can1  000023F0   [8]  04 05 21 31 06 12 41 51
  can1  000023F0   [8]  07 61 71 13 22 32 81 08
  can1  000023F0   [8]  14 42 91 A1 B1 C1 09 23
  can1  000023F0   [8]  33 52 F0 15 62 72 D1 0A
  can1  000023F0   [8]  16 24 34 E1 25 F1 17 18
  can1  000023F0   [8]  19 1A 26 27 28 29 2A 35
  can1  000023F0   [8]  36 37 38 39 3A 43 44 45
  can1  000023F0   [8]  46 47 48 49 4A 53 54 55
  can1  000023F0   [8]  56 57 58 59 5A 63 64 65
  can1  000023F0   [8]  66 67 68 69 6A 73 74 75
  can1  000023F0   [8]  76 77 78 79 7A 82 83 84
  can1  000023F0   [8]  85 86 87 88 89 8A 92 93
  can1  000023F0   [8]  94 95 96 97 98 99 9A A2
  can1  000023F0   [8]  A3 A4 A5 A6 A7 A8 A9 AA
  can1  000023F0   [8]  B2 B3 B4 B5 B6 B7 B8 B9
  can1  000023F0   [8]  BA C2 C3 C4 C5 C6 C7 C8
  can1  000023F0   [8]  C9 CA D2 D3 D4 D5 D6 D7
  can1  000023F0   [8]  D8 D9 DA E2 E3 E4 E5 E6
  can1  000023F0   [8]  E7 E8 E9 EA F2 F3 F4 F5
  can1  000023F0   [8]  F6 F7 F8 F9 FA FF C0 00
  can1  000023F0   [8]  11 08 00 F0 01 40 03 01
  can1  000023F0   [8]  21 00 02 11 01 03 11 01
  can1  000023F0   [8]  FF DA 00 0C 03 01 00 02
  can1  000023F0   [8]  11 03 11 00 3F 00 7C D0
  can1  000023F0   [8]  B4 8E CD 26 77 8F 5A 8E
  can1  000023F0   [8]  37 6B 31 2C D6 AB 18 97
  can1  000023F0   [8]  66 39 5C D6 DB 68 C3 92
  can1  000023F0   [8]  25 7D 4E 6B 48 3F B3 85
  can1  000023F0   [8]  9A 25 DC 7E 46 6E 67 8F
  can1  000023F0   [8]  76 ED E7 B5 49 E4 C3 2A
  can1  000023F0   [8]  E1 A3 19 14 A4 C3 90 5B
  can1  000023F0   [8]  4B 68 FC F6 59 22 18 44
  can1  000023F0   [8]  2C 78 A7 EA DA 74 B6 43
  can1  000023F0   [8]  32 C2 C9 04 9F 76 5D 9C
  can1  000023F0   [8]  50 87 EC D1 8D 1A A4 12
  can1  000023F0   [8]  F9 37 4A BE 59 E8 FE 94
  can1  000023F0   [8]  B3 D9 04 3B 82 0F C2 A5
  can1  000023F0   [8]  EA C7 60 81 50 30 CA 0A
  can1  000023F0   [8]  D2 F2 E3 03 EE 2D 1B 07
  can1  000023F0   [8]  B3 45 AB 03 1A E6 3D 8B
  can1  000023F0   [8]  C9 A5 BD 44 CF 0A B4 EE
  can1  000023F0   [8]  4B 82 19 6C 91 37 F0 2D
  can1  000023F0   [8]  5C 10 47 FD C5 A2 E1 CA
  can1  000023F0   [8]  84 F2 A3 FF 00 9E 6B 4D
  can1  000023F0   [8]  41 1E EF B8 B5 41 C8 8B
  can1  000023F0   [8]  50 79 7B C7 CA 31 5D 75
  can1  000023F0   [8]  9D B8 30 2E C8 86 7E 95
  can1  000023F0   [8]  71 95 87 C9 1E A5 1B D6
  can1  000023F0   [8]  29 23 AE D5 1F 85 62 DC
  can1  000023F0   [8]  6C 39 F9 46 69 39 0B 91
  can1  000023F0   [8]  19 F2 43 1B 7F 02 D5 73
  can1  000023F0   [8]  6B 11 3C C6 B5 99 7C 88
  can1  000023F0   [8]  86 4B 78 87 FC B3 5A A5
  can1  000023F0   [8]  3C 71 01 F7 16 82 79 4A
  can1  000023F0   [8]  C7 C9 03 EE 2D 54 9D A2
  can1  000023F0   [8]  EC 8B 48 39 4A 4C C9 FD
  can1  000023F0   [8]  D1 50 12 9E 94 5C 56 44
  can1  000023F0   [8]  4E 56 AB E4 66 95 C3 42
  can1  000023F0   [8]  CD B6 DC F2 05 36 E5 94
  can1  000023F0   [8]  9E 05 48 EC 54 62 33 48
  can1  000023F0   [8]  05 02 B0 F5 40 0F 22 AE
  can1  000023F0   [8]  C7 02 29 CB 8D CD E9 E9
  can1  000023F0   [8]  40 75 2C 79 4B 8E 9F 8D
  can1  000023F0   [8]  3C E9 53 C4 73 71 6C CA
  can1  000023F0   [8]  0F 20 BF A5 50 35 D4 AD
  can1  000023F0   [8]  E5 8C 32 AA 8C A9 ED 4D
  can1  000023F0   [8]  F2 12 28 C9 23 A5 4B 48
  can1  000023F0   [8]  2C 7A 9F DB A3 BA 88 2D
  can1  000023F0   [8]  CF C8 47 1E 60 5F 96 AA
  can1  000023F0   [8]  5C DB 34 32 6C B8 40 0B
  can1  000023F0   [8]  0E 18 1C A9 AD 7A 15 D4
  can1  000023F0   [8]  8E 0B 86 B4 B9 49 60 86
  can1  000023F0   [8]  DD 64 45 29 9F 28 55 6D
  can1  000023F0   [8]  A4 3F 27 73 1E 49 34 AC
  can1  000023F0   [8]  23 5F C3 AD 0A EB 50 7D
  can1  000023F0   [8]  A0 1F 2D FE 5F C7 B5 7A
  can1  000023F0   [8]  92 29 46 19 5B A5 4B 06
  can1  000023F0   [8]  78 FE B7 A5 C3 6B 71 3C
  can1  000023F0   [8]  56 C4 C9 63 BB F7 4E 79
  can1  000023F0   [8]  C0 F4 AC BD 3E EC 59 CA
  can1  000023F0   [8]  2D EF 7F D4 F4 59 3F BB
  can1  000023F0   [8]  4E 48 65 FD 4F 4D 7B 51
  can1  000023F0   [8]  E7 20 FD DF B7 34 3C 81
  can1  000023F0   [8]  A0 8D 87 71 48 A1 F0 73
  can1  000023F0   [8]  CD 5A 95 0B C3 54 22 1B
  can1  000023F0   [8]  4E 24 AD 41 D2 90 58 8D
  can1  000023F0   [8]  AA 8C 8C 55 A8 40 2A 5C
  can1  000023F0   [8]  73 8A ED BC 2B 77 E6 C2
  can1  000023F0   [8]  D9 FF 00 F5 56 91 11 0E
  can1  000023F0   [8]  B7 2E DB 86 CF CD 9C 76
  can1  000023F0   [8]  AE 62 E6 E7 63 90 D4 E6
  can1  000023F0   [8]  AC 22 8B 5F 2F AD 46 75
  can1  000023F0   [8]  28 C7 53 59 14 53 B9 D4
  can1  000023F0   [8]  E3 ED 59 17 3A 8E EE 94
  can1  000023F0   [8]  01 4D AF 1B D6 A0 79 98
  can1  000023F0   [8]  F7 A0 44 7B CD 2D 26 0C
  can1  000023F0   [8]  6B 29 C5 33 CA 6E F5 22
  can1  000023F0   [8]  11 1F 6E 69 0F 34 01 0E
  can1  000023F0   [8]  DC BF 15 69 62 D9 C9 EB
  can1  000023F0   [8]  DA 90 C7 FD CE BF 7B F9
  can1  000023F0   [8]  55 98 93 31 96 27 FD D1
  can1  000023F0   [8]  DD A9 92 6B 5B 69 72 58
  can1  000023F0   [8]  DB 45 A9 5E 79 C5 77 7F
  can1  000023F0   [8]  A9 51 DF D2 AE 6B D7 D3
  can1  000023F0   [8]  6A 6C B7 17 0D E5 BE CD
  can1  000023F0   [8]  BE 5E 31 9A 15 DC AE 33
  can1  000023F0   [8]  12 36 65 5D B8 5C 54 73
  can1  000023F0   [8]  91 9C 1E 73 4D 81 DE 5E
  can1  000023F0   [8]  5C 69 FE 6D C5 AE 9B 2B
  can1  000023F0   [8]  79 4C FB B6 37 E4 69 96
  can1  000023F0   [8]  77 8F 6E 9E 51 C4 D6 E7
  can1  000023F0   [8]  AC 72 F3 5A 3B AD C0 BE
  can1  000023F0   [8]  B6 6B 25 B7 DA F4 E2 67
  can1  000023F0   [8]  84 7D E8 4F FA C4 AC AB
  can1  000023F0   [8]  8F 9E E1 9F 04 2F A1 1D
  can1  000023F0   [8]  28 E8 32 D4 1F 39 C3 FE
  can1  000023F0   [8]  75 AB 06 B1 7F 65 6C D1
  can1  000023F0   [8]  FD A0 BC 01 7A 3F A5 48
  can1  000023F0   [8]  CB 87 44 D4 66 89 5B EC
  can1  000023F0   [8]  F1 CB 13 A8 EA FD 45 72
  can1  000023F0   [8]  1E 28 F0 ED DE 90 0D C7
  can1  000023F0   [8]  96 5A D7 A9 C1 C9 8E A9
  can1  000023F0   [8]  7B C0 33 42 D4 36 DB 7D
  can1  000023F0   [8]  96 73 BA 0F F9 66 DF DD
  can1  000023F0   [8]  A8 6F A0 36 EC 7C BF F5
  can1  000023F0   [8]  43 F4 A5 62 BA 5C 92 CE
  can1  000023F0   [8]  60 2B 7A D9 52 E2 35 03
  can1  000023F0   [8]  EF 13 8A 94 48 DB 9D 36
  can1  000023F0   [8]  4B 67 53 B3 00 9C 7E 34
  can1  000023F0   [8]  7D DE B4 C6 44 5C 55 59
  can1  000023F0   [8]  C6 69 01 1A C7 5D 3F 85
  can1  000023F0   [8]  DC 41 75 B1 9B 01 FB E6
  can1  000023F0   [8]  B4 89 26 87 88 E0 12 1F
  can1  000023F0   [8]  DC E5 A4 E0 0F 7A E2 35
  can1  000023F0   [8]  2B 69 16 52 5F 08 3D F8
  can1  000023F0   [8]  AB 7B 92 73 B7 AF 12 7F
  can1  000023F0   [8]  CB C4 64 FB 38 AC B7 B8
  can1  000023F0   [8]  8F 77 FA D5 CF D6 B2 6B
  can1  000023F0   [8]  52 C8 1A 74 6F E3 5F CE
  can1  000023F0   [8]  98 4E 69 31 00 14 E2 B5
  can1  000023F0   [8]  23 14 25 3C 2D 02 17 6F
  can1  000023F0   [8]  CB 5B 7F D9 67 FB 13 CE
  can1  000023F0   [8]  C0 C8 1C F1 48 67 24 CD
  can1  000023F0   [8]  82 7E B4 CF 37 B0 A1 A2
  can1  000023F0   [8]  4D 3B 0B 7F 99 46 19 A6
  can1  000023F0   [8]  7E 89 57 25 06 10 EA 10
  can1  000023F0   [8]  79 9D CF F7 68 2B A1 9F
  can1  000023F0   [8]  F2 F2 69 86 E0 C5 FB C4
  can1  000023F0   [8]  6C 15 E9 40 8D 1B 4D 66
  can1  000023F0   [8]  E8 B2 5C C8 DE 67 97 C2
  can1  000023F0   [8]  A1 E8 2A CC 53 A5 E4 9B
  can1  000023F0   [8]  AE 64 58 54 F3 8A 13 25
  can1  000023F0   [8]  8C 9F CA 53 F2 3A BF FB
  can1  000023F0   [8]  B5 5F 76 7B 55 0C D5 F0
  can1  000023F0   [8]  75 EE AD 6D AA DC E9 56
  can1  000023F0   [8]  BA 3C 17 97 13 BE EF 32
  can1  000023F0   [8]  68 8B 79 5F ED 56 FD C4
  can1  000023F0   [8]  6F 1D C4 CB 30 01 C3 9D
  can1  000023F0   [8]  FB 40 18 35 72 DD 8E E2
  can1  000023F0   [8]  DA DC 18 5B CF B5 91 92
  can1  000023F0   [8]  48 FB D7 67 A3 DE E9 BA
  can1  000023F0   [8]  D4 66 DE E9 15 6E 3D FF
  can1  000023F0   [8]  00 8F DE A7 61 90 5F 78
  can1  000023F0   [8]  77 EC 0E 66 4D CF 6C 39
  can1  000023F0   [8]  F7 4A CF D5 E0 84 58 36
  can1  000023F0   [8]  C3 93 B4 8F AD 3B 5C 67
  can1  000023F0   [8]  A3 F6 AA F7 49 9D 9B 7F
  can1  000023F0   [8]  BE 03 71 D4 54 C3 73 33
  can1  000023F0   [8]  C6 2F 63 8A 1F 10 5F 8B
  can1  000023F0   [8]  08 D5 20 FB 43 80 8B F7
  can1  000023F0   [8]  7A D5 DC 09 60 DA DC 37
  can1  000023F0   [8]  F0 92 7F 4A D1 9A 44 CD
  can1  000023F0   [8]  F2 8C 57 4E 98 65 DB 8E
  can1  000023F0   [8]  B5 D0 68 6C 16 78 8C 87
  can1  000023F0   [8]  0A 24 56 C9 AC C2 C7 63
  can1  000023F0   [8]  E2 58 63 73 16 D5 E4 FC
  can1  000023F0   [8]  DC 57 37 75 68 F2 B7 CA
  can1  000023F0   [8]  95 42 2B 49 A5 5D 22 16
  can1  000023F0   [8]  C0 C5 66 EF 52 C5 77 29
  can1  000023F0   [8]  23 D0 D1 60 B8 EF B4 C2
  can1  000023F0   [8]  BF 2E 43 37 F7 57 93 5A
  can1  000023F0   [8]  B6 69 AB 79 A0 D9 DB C5
  can1  000023F0   [8]  17 1F 7A E7 A5 2D 87 63
  can1  000023F0   [8]  43 FB 1B 51 BC 26 6D 4B
  can1  000023F0   [8]  C4 57 0B FF 00 4C AD 10
  can1  000023F0   [8]  22 D6 4D D7 86 B4 58 01
  can1  000023F0   [8]  FD C4 D7 27 D6 E2 62 D9
  can1  000023F0   [8]  AA E6 0D B6 33 BE C3 A7
  can1  000023F0   [8]  83 88 B4 CB 60 3F EB 8D
  can1  000023F0   [8]  38 D9 DB 28 E3 4D 87 FF
  can1  000023F0   [8]  00 01 EB 2B 6A 3E 67 D4
  can1  000023F0   [8]  8A 5B 6B 7E FA 64 07 EB
  can1  000023F0   [8]  6E 2A 8C F0 69 9D 27 D3
  can1  000023F0   [8]  2D 97 FE D9 6D A2 DA 8A
  can1  000023F0   [8]  E5 61 A5 69 33 B7 C8 19
  can1  000023F0   [8]  0F A2 4B 4D 9F C2 E7 19
  can1  000023F0   [8]  B5 BD FF 00 80 CA 94 05
  can1  000023F0   [8]  CC D9 B4 9B FB 70 5A 4B
  can1  000023F0   [8]  7F 91 7F 8C 38 C5 54 E3
  can1  000023F0   [8]  38 F3 62 CF FB E2 97 32
  can1  000023F0   [8]  0B 3E 85 A8 2D C7 57 78
  can1  000023F0   [8]  19 7F D9 B9 40 6B 76 EB
  can1  000023F0   [8]  56 B5 7D 09 AD 11 D9 6E
  can1  000023F0   [8]  36 7D D2 57 19 A9 4E E5
  can1  000023F0   [8]  B8 D8 E2 26 84 F3 B8 55
  can1  000023F0   [8]  BD 17 46 B8 D4 EE 8C 16
  can1  000023F0   [8]  EA 01 C8 DD 2C BC 24 5E
  can1  000023F0   [8]  F5 5B 99 36 7A 5C FA 1F
  can1  000023F0   [8]  87 FC 2D A4 C9 71 77 E6
  can1  000023F0   [8]  29 DB E5 AE 4F EF EE 9A
  can1  000023F0   [8]  BC DA 7B 97 D4 26 CC 69
  can1  000023F0   [8]  E5 DA EE E1 14 F5 A6 22
  can1  000023F0   [8]  29 62 C4 64 0E B4 F9 B4
  can1  000023F0   [8]  D9 DA 1D E1 63 7E 3A 09
  can1  000023F0   [8]  06 68 63 21 B2 86 65 8E
  can1  000023F0   [8]  58 DE 26 1C D4 F1 A9 41
  can1  000023F0   [8]  82 72 68 11 69 20 3B 03
  can1  000023F0   [8]  3F 4F 4A 76 DE D4 C0 E9
  can1  000023F0   [8]  16 E2 4C 6C 32 3E DE 98
  can1  000023F0   [8]  DD 4F DE A7 EE D5 15 7E
  can1  000023F0   [8]  84 B6 49 32 4A 5A 13 B1
  can1  000023F0   [8]  CF 1C 77 AD AB 2F B1 C8
  can1  000023F0   [8]  CD 0C BF E8 53 32 E3 2D
  can1  000023F0   [8]  F7 1E 90 1D FE 9E B7 49
  can1  000023F0   [8]  6A 0C EF BD 8B 67 19 CF
  can1  000023F0   [8]  15 C7 6B B6 B6 92 6A 17
  can1  000023F0   [8]  02 C0 88 A7 46 C3 43 D1
  can1  000023F0   [8]  58 FA D5 C5 85 FB 12 4B
  can1  000023F0   [8]  E2 9D 64 FC A1 2C E3 FF
  can1  000023F0   [8]  00 68 23 1A 86 DF C4 B7
  can1  000023F0   [8]  96 7A 85 BF F6 A5 E6 E5
  can1  000023F0   [8]  BA CF 96 BB 3E 5A 5E 81
  can1  000023F0   [8]  62 59 FC 39 A5 6A D6 AB
  can1  000023F0   [8]  AB F8 65 93 0F D6 24 FB
  can1  000023F0   [8]  92 54 36 DA 40 BE 86 EE
  can1  000023F0   [8]  16 1B 4D BF 12 28 FB C2
  can1  000023F0   [8]  A5 94 62 8D 36 EF ED 53
  can1  000023F0   [8]  E9 F2 F9 52 FE E8 B5 BC
  can1  000023F0   [8]  BB B0 58 0E B5 67 4B 54
  can1  000023F0   [8]  5B 6D BF BD 94 8F E2 8D
  can1  000023F0   [8]  A8 03 AE FB 3B CD 6B 1F
  can1  000023F0   [8]  DB 7C DB 4D 83 EF 4D 2B
  can1  000023F0   [8]  36 6A 93 2E 97 BF 63 1B
  can1  000023F0   [8]  79 BE B2 9A D6 DC FB A2
  can1  000023F0   [8]  6F 6D 88 A4 9B 42 B6 E5
  can1  000023F0   [8]  AC AC A7 6C E3 6C 76 FE
  can1  000023F0   [8]  6B 0A 87 55 BD B3 BB 85
  can1  000023F0   [8]  A2 D0 D2 8E 88 39 9C B5
  can1  000023F0   [8]  65 18 27 8E DF FD 4C 71
  can1  000023F0   [8]  C5 FE E8 02 95 B5 8F 2B
  can1  000023F0   [8]  94 C3 B0 ED 59 A0 2C 45
  can1  000023F0   [8]  E2 05 0B BA 68 B8 FF 00
  can1  000023F0   [8]  68 D6 4E AB AB CE D7 27
  can1  000023F0   [8]  60 8C 0F F6 05 20 39 8D
  can1  000023F0   [8]  47 52 BA DB 8F B6 4A BC
  can1  000023F0   [8]  F6 7C 57 3A EC 77 71 3C
  can1  000023F0   [8]  BF F7 F4 D4 B5 A8 D3 B1
  can1  000023F0   [8]  1E E7 1C 89 E5 CF AF 98
  can1  000023F0   [8]  6A 5B 61 73 35 CA AC 3E
  can1  000023F0   [8]  7C D2 39 DB D4 B5 01 7B
  can1  000023F0   [8]  97 B5 16 FB 05 FC 96 AB
  can1  000023F0   [8]  99 3C BC 6E DE 3B D2 43
  can1  000023F0   [8]  AA CC A7 E5 79 50 7A 06
  can1  000023F0   [8]  A0 46 84 7A BD D0 C6 27
  can1  000023F0   [8]  DD F5 A7 4B 2D B5 F7 37
  can1  000023F0   [8]  B6 B1 BC 9F F3 D3 A3 55
  can1  000023F0   [8]  58 45 49 74 C6 44 2F 67
  can1  000023F0   [8]  E6 4E A3 9F 2C 90 1A A3
  can1  000023F0   [8]  7B AD 00 AF 95 79 A6 6A
  can1  000023F0   [8]  C2 E9 07 2A 2E 57 15 3E
  can1  000023F0   [8]  F7 71 D9 76 2A 58 89 D2
  can1  000023F0   [8]  43 35 9C 51 FF 00 BB 3B
  can1  000023F0   [8]  03 57 A4 D4 2F 06 9A F0
  can1  000023F0   [8]  31 8E 13 20 C3 98 17 04
  can1  000023F0   [8]  F3 9C 52 B2 DC 9D 76 3B
  can1  000023F0   [8]  BF 0C 7C 3F 93 52 8A DB
  can1  000023F0   [8]  53 F1 94 D7 57 2E BF EA
  can1  000023F0   [8]  AD 6E 66 2D 81 4E 9F E1
  can1  000023F0   [8]  CC F7 7E 24 D5 2E 54 C3
  can1  000023F0   [8]  67 61 BB FD 16 04 FE 3F
  can1  000023F0   [8]  94 73 54 B5 2B 9C E0 35
  can1  000023F0   [8]  5D 26 5B 5B 86 59 65 36
  can1  000023F0   [8]  EA AC 41 5D B9 63 CD 3A
  can1  000023F0   [8]  C6 36 96 1C 19 5B 68 FE
  can1  000023F0   [8]  27 E5 CD 2D 85 D6 E5 89
  can1  000023F0   [8]  6E A1 B6 89 95 62 96 45
  can1  000023F0   [8]  5E BE 5D 64 43 7F 1C 53
  can1  000023F0   [8]  6F FB 8F FE D7 6A 2C 05
  can1  000023F0   [8]  94 BB 0E 0E DD AF FE D5
  can1  000023F0   [8]  56 92 49 09 E5 A8 03 AB
  can1  000023F0   [8]  FB DF 7B 9A 80 9C 48 63
  can1  000023F0   [8]  8D 9B EE 6E E6 B4 45 16
  can1  000023F0   [8]  E2 BA C1 F9 78 C7 15 75
  can1  000023F0   [8]  65 32 A6 E3 CE 3A 54 DC
  can1  000023F0   [8]  94 77 5A 5C B6 62 D2 34
  can1  000023F0   [8]  B7 82 F6 E4 C8 BB E4 D9
  can1  000023F0   [8]  9D A8 DE 95 93 E2 6B 7B
  can1  000023F0   [8]  58 EF 2C DE 38 7E CB 29
  can1  000023F0   [8]  86 43 B3 03 2F CA D5 44
  can1  000023F0   [8]  A6 D9 8C B7 23 71 5B 8F
  can1  000023F0   [8]  FB EE BA 3D 22 D7 EC B7
  can1  000023F0   [8]  09 35 F5 94 73 5B E3 72
  can1  000023F0   [8]  5C 28 0C 10 FA D4 82 3A
  can1  000023F0   [8]  7D 36 D6 C6 D2 D4 2E 9B
  can1  000023F0   [8]  04 30 C0 DF 36 D8 53 68
  can1  000023F0   [8]  A1 A6 86 3B D7 48 E3 06
  can1  000023F0   [8]  E1 A3 DE D8 1C 90 29 6E
  can1  000023F0   [8]  F5 33 D4 AD 3E 95 03 CC
  can1  000023F0   [8]  D7 82 2C CE 57 EE 9E 99
  can1  000023F0   [8]  F5 AE 57 C4 BA 3D B5 B5
  can1  000023F0   [8]  A8 D4 62 62 97 12 C8 23
  can1  000023F0   [8]  97 CB 62 14 E6 AA DC C6
  can1  000023F0   [8]  91 76 2C C8 B1 2E A3 12
  can1  000023F0   [8]  99 CD C5 B2 7C 8C 65 39
  can1  000023F0   [8]  5E 94 FD 4B 57 D2 4A 79
  can1  000023F0   [8]  56 3A 7D BC B3 F4 66 31
  can1  000023F0   [8]  0D A9 4E 37 40 F5 30 99
  can1  000023F0   [8]  42 A9 28 A8 83 AF 03 15
  can1  000023F0   [8]  95 35 D3 6E 3B 31 F5 6A
  can1  000023F0   [8]  09 1F 91 26 99 3C 98 95
  can1  000023F0   [8]  A5 47 1D 07 41 54 F7 8C
  can1  000023F0   [8]  75 A9 B9 56 2C 46 E0 A7
  can1  000023F0   [8]  5A D6 8A F2 4D 65 6E 34
  can1  000023F0   [8]  83 05 B2 09 20 76 DD FD
  can1  000023F0   [8]  D6 EC 69 5C 47 9A 4D 13
  can1  000023F0   [8]  C2 E6 DA E6 39 60 BA 4F
  can1  000023F0   [8]  BD 1C A3 07 EB 55 1A 3A
  can1  000023F0   [8]  40 31 D7 D6 B6 CA DF 68
  can1  000023F0   [8]  9A 75 BD E5 9B 47 9E 3E
  can1  000023F0   [8]  D1 BA 3D C5 0D 1D 04 62
  can1  000023F0   [8]  96 25 CB F7 63 B8 D3 D0
  can1  000023F0   [8]  8C D1 EA 24 6D DB 58 0F
  can1  000023F0   [8]  EC 19 2F E3 92 DE 59 DC
  can1  000023F0   [8]  F9 6B 1E 72 D1 8F 5A A7
  can1  000023F0   [8]  14 E5 7A 9C 8F 43 54 A4
  can1  000023F0   [8]  99 46 9D 85 D4 67 85 7C
  can1  000023F0   [8]  36 7E E1 AD 3B 98 2D 35
  can1  000023F0   [8]  2B 7F 2A E9 00 93 F8 64
  can1  000023F0   [8]  FE 25 A1 81 CD 6A FA 7C
  can1  000023F0   [8]  FA 51 0C 81 E4 B5 FF 00
  can1  000023F0   [8]  9E BE 95 D5 F8 37 46 7B
  can1  000023F0   [8]  C6 B2 D4 A2 85 67 99 89
  can1  000023F0   [8]  31 AC 9F 76 2D A7 AD 49
  can1  000023F0   [8]  57 3D 13 57 92 E1 66 58
  can1  000023F0   [8]  E4 7D ED 15 AF DA 36 76
  can1  000023F0   [8]  DE 18 0C D4 7E 2F 9B 43
  can1  000023F0   [8]  1A 7A C7 AC B3 C9 34 C9
  can1  000023F0   [8]  FB 95 85 37 49 C5 6B B7
  can1  000023F0   [8]  C2 42 3C 7A F1 5D D6 04
  can1  000023F0   [8]  97 92 AC 71 17 68 E9 60
  can1  000023F0   [8]  B1 9E 7B 98 AD E2 60 F2
  can1  000023F0   [8]  4C DB 11 17 8C D4 30 2A
  can1  000023F0   [8]  5C 4B 34 6F 71 6D B0 C6
  can1  000023F0   [8]  B1 C8 62 6C F7 C5 65 CC
  can1  000023F0   [8]  37 49 52 05 8B 76 22 1C
  can1  000023F0   [8]  0E D5 26 7D 6A 90 1D 8C
  can1  000023F0   [8]  43 D6 A4 FB 24 72 0A 63
  can1  000023F0   [8]  21 9F 4D 91 72 F1 F2 3D
  can1  000023F0   [8]  09 A8 AD 77 40 47 9B 94
  can1  000023F0   [8]  3D B3 48 0E D3 43 D7 3C
  can1  000023F0   [8]  83 65 02 FE EC 1F F5 99
  can1  000023F0   [8]  FE 2A 8B C6 77 D0 BE A7
  can1  000023F0   [8]  66 CC FC F9 12 60 7F C0
  can1  000023F0   [8]  85 11 07 B9 08 B7 8D 2E
  can1  000023F0   [8]  9D 59 D5 E2 FB 38 96 1D
  can1  000023F0   [8]  83 76 46 33 5D 3F 85 93
  can1  000023F0   [8]  64 6E 63 90 08 5B AC 7F
  can1  000023F0   [8]  ED 51 D0 6E D6 D0 E8 AB
  can1  000023F0   [8]  3E DA C8 C5 AC 5D 5D 60
  can1  000023F0   [8]  6D 91 54 2F F5 A9 4C 8B
  can1  000023F0   [8]  9A 15 C6 78 A2 E6 D9 75
  can1  000023F0   [8]  3F B1 C8 E8 49 96 DE 66
  can1  000023F0   [8]  87 B9 50 4E 4D 38 84 4C
  can1  000023F0   [8]  8D 46 E7 ED 17 52 0B 4D
  can1  000023F0   [8]  E9 6E D8 FD DF F0 E7 D6
  can1  000023F0   [8]  AA B7 EE 57 2F D6 99 66
  can1  000023F0   [8]  75 CD DF 99 91 9F 96 A8
  can1  000023F0   [8]  1F 5A 04 6D C5 16 AF 75
  can1  000023F0   [8]  E1 AB 59 34 A6 77 45 DE
  can1  000023F0   [8]  B7 16 F1 63 7B 73 D6 B2
  can1  000023F0   [8]  96 22 72 AC 1A 37 4E 19
  can1  000023F0   [8]  1C 60 83 E9 53 A1 44 13
  can1  000023F0   [8]  17 84 E7 A6 2B AB D2 6D
  can1  000023F0   [8]  FE C3 E1 E2 D2 AB 8B BB
  can1  000023F0   [8]  E3 BD 83 8E 89 DA 80 E8
  can1  000023F0   [8]  57 D5 2C 2D B5 DB 51 6D
  can1  000023F0   [8]  7A 31 2E 36 C1 70 A3 E6
  can1  000023F0   [8]  88 D7 9A AA B0 FD DB FD
  can1  000023F0   [8]  F4 62 8F F5 07 14 11 D4
  can1  000023F0   [8]  E9 74 5B 3B 7B 1D 1F FB
  can1  000023F0   [8]  42 75 2D 73 72 7F D1 C3
  can1  000023F0   [8]  63 E5 5F 5A 64 72 FE F9
  can1  000023F0   [8]  85 C7 CF 14 9C 48 87 B8
  can1  000023F0   [8]  A2 C3 B1 CD DF DA 8B 4B
  can1  000023F0   [8]  E9 6D D1 B7 46 BC A9 C7
  can1  000023F0   [8]  63 CD 25 BA AE FE 50 BF
  can1  000023F0   [8]  A2 8E F4 02 35 2C EC FC
  can1  000023F0   [8]  BB E2 32 03 BF 0B 1A F3
  can1  000023F0   [8]  B6 B1 BC E9 01 68 D9 40
  can1  000023F0   [8]  75 6C 35 1C DA 03 2C 41
  can1  000023F0   [8]  28 CE D7 E2 B4 61 B8 7B
  can1  000023F0   [8]  5F F5 A3 74 4D F9 D5 20
  can1  000023F0   [8]  36 62 BB 64 4C 6D 12 C4
  can1  000023F0   [8]  DD 43 57 47 E1 4D 66 D7
  can1  000023F0   [8]  4B B3 FB 1C 00 C6 9B CF
  can1  000023F0   [8]  96 42 E7 66 79 C5 2B 02
  can1  000023F0   [8]  37 C5 E4 7A 8D FC 0B 1F
  can1  000023F0   [8]  9B 25 C4 60 F2 AB EB 4D
  can1  000023F0   [8]  BA B2 5B B3 99 F4 69 59
  can1  000023F0   [8]  C7 0D 0A 48 10 E2 AA E3
  can1  000023F0   [8]  45 7D 42 0D 20 D8 FD 90
  can1  000023F0   [8]  E9 AF A7 BA F3 E5 E1 6B
  can1  000023F0   [8]  CB BC 62 B0 5B F8 82 1F
  can1  000023F0   [8]  B0 EE 58 FC 85 3F 7B 9D
  can1  000023F0   [8]  D9 A5 7D 49 B9 CF A8 CB
  can1  000023F0   [8]  84 8C 1F 65 15 A5 61 67
  can1  000023F0   [8]  65 2C AA 35 1D 46 4B 35
  can1  000023F0   [8]  E2 1F 75 1D 95 BC C5 6C
  can1  000023F0   [8]  6E 26 B8 8B FE 7A 49 17
  can1  000023F0   [8]  97 9A A8 D3 1C F1 C5 27
  can1  000023F0   [8]  B8 D1 DC 45 56 53 AD 31
  can1  000023F0   [8]  9A 11 0A 99 6C 96 7F 97
  can1  000023F0   [8]  81 EF 40 0A DA 65 CD BC
  can1  000023F0   [8]  AB 33 5B C3 76 9F 74 81
  can1  000023F0   [8]  21 04 8A 65 D6 85 FD B6
  can1  000023F0   [8]  F6 E6 DA DA 1B 29 21 F9
  can1  000023F0   [8]  46 D7 32 70 6A E3 6D C2
  can1  000023F0   [8]  E6 4B A6 A9 A1 B0 17 C9
  can1  000023F0   [8]  35 B4 47 2A 32 73 1F 35
  can1  000023F0   [8]  DB 68 F7 B1 FF 00 61 A6
  can1  000023F0   [8]  C0 A4 E4 9A 1E 85 1D 15
  can1  000023F0   [8]  94 AF 3C 4B 38 95 5E 37
  can1  000023F0   [8]  E9 F2 F4 AB 55 99 93 19
  can1  000023F0   [8]  34 AB 04 2F 2C 9F 75 06
  can1  000023F0   [8]  4D 70 17 B2 1D 4F 52 9A
  can1  000023F0   [8]  ED E3 54 CF C8 BE BB 45
  can1  000023F0   [8]  52 5A 5C A8 95 A6 DB 6E
  can1  000023F0   [8]  95 87 79 70 59 B8 A4 32
  can1  000023F0   [8]  96 EE 39 E9 4C C8 00 B7
  can1  000023F0   [8]  61 41 47 67 A4 A4 96 9A
  can1  000023F0   [8]  0D 88 64 28 4E E9 43 7F
  can1  000023F0   [8]  BC 73 5A BB E2 D6 20 6B
  can1  000023F0   [8]  6D 45 13 7F FC B3 9C 0E
  can1  000023F0   [8]  56 80 67 37 36 9E 9F 62
  can1  000023F0   [8]  69 24 00 83 F2 D5 EB 99
  can1  000023F0   [8]  9A 58 E0 73 F7 7C B0 AB
  can1  000023F0   [8]  F9 50 22 85 DD D2 DA 42
  can1  000023F0   [8]  67 73 F7 3F 53 5E 78 DF
  can1  000023F0   [8]  BC 2E 7A 33 33 16 FA 93
  can1  000023F0   [8]  40 91 B8 AF F6 8D 3A 0B
  can1  000023F0   [8]  88 DD 98 DB AF 95 32 63
  can1  000023F0   [8]  EE 7A 54 65 97 AB B0 45
  can1  000023F0   [8]  FE F1 A5 61 B3 06 E9 CC
  can1  000023F0   [8]  F7 4F 23 63 9E 07 D0 55
  can1  000023F0   [8]  A8 57 EC 90 C1 37 F1 CE
  can1  000023F0   [8]  9B 91 87 A5 1B 89 31 52
  can1  000023F0   [8]  56 57 12 0F BC A7 34 BE
  can1  000023F0   [8]  28 44 FE D4 86 EA 16 CA
  can1  000023F0   [8]  DD C1 BC FD 47 14 81 98
  can1  000023F0   [8]  FD 6A ED A5 DB 45 F2 91
  can1  000023F0   [8]  B9 71 4C 2E 5C 86 E4 C5
  can1  000023F0   [8]  26 F5 05 A2 EE 33 5A CA
  can1  000023F0   [8]  C1 C0 96 DB 3F 4C D3 15
  can1  000023F0   [8]  CE A7 C3 7E 2B 16 76 B2
  can1  000023F0   [8]  5A C9 10 19 3B 95 D4 F2
  can1  000023F0   [8]  3D AA C6 A9 AC 1B DF 95
  can1  000023F0   [8]  48 65 6E BB F9 A4 B4 03
  can1  000023F0   [8]  9E 7D 46 3B 74 E1 85 66
  can1  000023F0   [8]  EA 9A 5B DC 79 77 FA 85
  can1  000023F0   [8]  BC F0 40 9F 26 F7 F9 03
  can1  000023F0   [8]  64 D5 79 8C C6 2B 18 C8
  can1  000023F0   [8]  B7 1B 53 DA A1 3F 2D 21
  can1  000023F0   [8]  10 33 66 9B B3 34 86 8E
  can1  000023F0   [8]  F6 3D BE B5 32 37 34 C0
  can1  000023F0   [8]  BD 14 A2 AF 43 2D 00 8D
  can1  000023F0   [8]  48 7E 61 D6 A6 02 58 1B
  can1  000023F0   [8]  CD 84 E1 A8 28 9A 3D 59
  can1  000023F0   [8]  EE 54 D9 DC 27 96 CF C0
  can1  000023F0   [8]  91 57 72 9A A5 3E 99 77
  can1  000023F0   [8]  6E A5 A1 8A 39 AD C9 27
  can1  000023F0   [8]  75 B8 C6 2A B4 11 B7 A3
  can1  000023F0   [8]  DC A7 D8 FC BC 11 E5 F5
  can1  000023F0   [8]  1E 94 E4 D4 D2 03 27 DA
  can1  000023F0   [8]  89 10 AF 49 0F F2 A2 C4
  can1  000023F0   [8]  33 96 BF D5 A6 D4 EE 0B
  can1  000023F0   [8]  49 98 ED 87 DC 87 FA D4
  can1  000023F0   [8]  02 E1 61 0C 42 EE CF A5
  can1  000023F0   [8]  53 EC 33 2E F6 73 70 78
  can1  000023F0   [8]  CE 3D 0D 66 CD 1E 39 A8
  can1  000023F0   [8]  19 5D D7 75 57 90 1F 22
  can1  000023F0   [8]  44 1D EA 40 EE AE EF FE
  can1  000023F0   [8]  DB 69 6F 2D B8 FD C2 A0
  can1  000023F0   [8]  50 10 7D DA AD 36 A0 6C
  can1  000023F0   [8]  F4 F9 6E 3B C4 99 14 05
  can1  000023F0   [8]  CA D6 77 BE 75 B8 33 0C
  can1  000023F0   [8]  ED FE 16 6E A6 98 D7 12
  can1  000023F0   [8]  C0 64 95 7F 79 BB EF 46
  can1  000023F0   [8]  DD 0D 00 64 78 C6 46 5B
  can1  000023F0   [8]  DD 3A 38 BF D4 CD 6C D2
  can1  000023F0   [8]  ED 3D 9F 8A E6 1C 64 9C
  can1  000023F0   [8]  50 C9 34 34 46 F2 F5 38
  can1  000023F0   [8]  8E 14 BB 02 92 42 DF C4
  can1  000023F0   [8]  86 A0 D5 A6 CE A5 73 0C
  can1  000023F0   [8]  23 65 BC 4F B5 23 07 81
  can1  000023F0   [8]  48 66 79 50 4D 69 DB 40
  can1  000023F0   [8]  F7 FA 1B C3 0C 22 4B 8B
  can1  000023F0   [8]  29 33 18 45 F9 8A 37 5A
  can1  000023F0   [8]  36 1A 2B 88 44 43 CC BE
  can1  000023F0   [8]  9D 60 5F F9 E6 BF 34 A6
  can1  000023F0   [8]  B3 AE A5 F3 A6 32 E0 E3
  can1  000023F0   [8]  A2 67 A8 5A 3A 8A E4 18
  can1  000023F0   [8]  A6 9E 69 80 F8 A4 31 9E
  can1  000023F0   [8]  2B 52 C6 EF 69 18 DD B7
  can1  000023F0   [8]  D3 3D 28 40 68 C8 37 E5
  can1  000023F0   [8]  87 5A D3 D2 6E 74 E7 49
  can1  000023F0   [8]  06 AB A9 4B 69 B3 EE F9
  can1  000023F0   [8]  50 19 09 AB B5 C2 E5 E7
  can1  000023F0   [8]  BA F0 F6 8D 7D 25 C6 8D
  can1  000023F0   [8]  6B 77 A8 4A B1 6C CD D3
  can1  000023F0   [8]  6D 51 BF 39 AC 0D 7A F2
  can1  000023F0   [8]  6D 62 71 7D 7F E5 79 82
  can1  000023F0   [8]  28 F1 B1 78 E9 55 D0 A6
  can1  000023F0   [8]  BB 99 1E 6A 28 F5 AA D2
  can1  000023F0   [8]  4F 9E D5 91 0C 62 91 56
  can1  000023F0   [8]  10 66 80 47 4A 8D 56 11
  can1  000023F0   [8]  CF AD 34 32 C2 49 56 A1
  can1  000023F0   [8]  BA DA 7E F5 00 69 43 A8
  can1  000023F0   [8]  AA 63 F7 C9 5A D1 6A 29
  can1  000023F0   [8]  22 ED C7 26 82 89 61 1F
  can1  000023F0   [8]  BF 46 28 C0 13 DC 56 9D
  can1  000023F0   [8]  9D EB C1 A2 C0 EB F3 9F
  can1  000023F0   [8]  2D DB 9E F8 A6 84 FB 1A
  can1  000023F0   [8]  8A 12 7B 78 E4 68 51 B7
  can1  000023F0   [8]  A8 26 BC FA FA E2 FD EE
  can1  000023F0   [8]  6E 2D 6E EE 62 95 23 98
  can1  000023F0   [8]  ED 58 63 D8 A2 84 2B 10
  can1  000023F0   [8]  E3 8F 9B A5 57 92 6C 70
  can1  000023F0   [8]  3A 53 11 50 90 65 CE 78
  can1  000023F0   [8]  A9 08 04 60 9E B5 2C 65
  can1  000023F0   [8]  76 84 74 38 C5 51 94 61
  can1  000023F0   [8]  BA 71 8A 40 32 29 7C 99
  can1  000023F0   [8]  37 23 CB 13 FA C4 70 6B
  can1  000023F0   [8]  6B 2D AF E8 F7 F6 4F E5
  can1  000023F0   [8]  0B D2 9B A2 31 8D 9B 8F
  can1  000023F0   [8]  51 41 46 26 9F A9 79 A9
  can1  000023F0   [8]  B8 FC 92 2F C8 D1 B1 C1
  can1  000023F0   [8]  0D DE B5 5A F5 24 1B 07
  can1  000023F0   [8]  2E 78 0A 28 11 53 C5 51
  can1  000023F0   [8]  66 F6 C2 22 79 B5 B7 2A
  can1  000023F0   [8]  DF 53 8A E7 DD 4E EA 04
  can1  000023F0   [8]  8B 3A 61 58 F5 38 66 93
  can1  000023F0   [8]  B7 04 FE 94 CF 11 D9 4D
  can1  000023F0   [8]  65 A8 3D CC 70 B4 96 D7
  can1  000023F0   [8]  07 76 E8 C6 76 1A 5E 63
  can1  000023F0   [8]  32 16 78 19 BE 59 47 D1
  can1  000023F0   [8]  B8 AD 98 1F EC 5A 5C 93
  can1  000023F0   [8]  F2 93 4F F7 7B 35 31 A3
  can1  000023F0   [8]  1D CF CB 85 E0 0A 84 8E
  can1  000023F0   [8]  F4 12 21 A8 9A 80 12 9E
  can1  000023F0   [8]  8F B0 E6 80 36 74 FB A0
  can1  000023F0   [8]  57 69 23 1E B5 66 75 2B
  can1  000023F0   [8]  F3 2F 15 42 47 41 FD A5
  can1  000023F0   [8]  A7 EA 5A 2B C1 2E E5 BF
  can1  000023F0   [8]  91 D3 00 2F F7 6B 52 CB
  can1  000023F0   [8]  4F D3 6C 6D 7F D3 31 26
  can1  000023F0   [8]  EB 48 31 C7 53 B7 19 A5
  can1  000023F0   [8]  7F B2 37 DC F3 7D 43 CB
  can1  000023F0   [8]  FB 43 F9 58 D9 9E 31 59
  can1  000023F0   [8]  C4 F3 41 24 D1 73 5A 30
  can1  000023F0   [8]  47 F2 D2 19 B6 95 28 A6
  can1  000023F0   [8]  50 FE D4 CC 9A 62 26 8A
  can1  000023F0   [8]  4C 1A E9 B4 1D 5F EC D3
  can1  000023F0   [8]  A6 62 57 CF 14 B7 28 E8
  can1  000023F0   [8]  A7 D5 52 E4 45 9C 2E 0D
  can1  000023F0   [8]  57 B2 97 1A 15 AD C7 1F
  can1  000023F0   [8]  27 99 C7 AF 26 A9 22 4B
  can1  000023F0   [8]  BA 9D FF 00 93 A5 59 D9
  can1  000023F0   [8]  C7 26 27 B8 8D 73 EA 17
  can1  000023F0   [8]  1C 9A E4 26 8B EC F2 3E
  can1  000023F0   [8]  0E 46 7A D2 5B 0D 95 26
  can1  000023F0   [8]  B9 18 C5 67 CB 74 17 B1
  can1  000023F0   [8]  A2 E4 15 CC EE 5F B0 5A
  can1  000023F0   [8]  B6 2E 51 21 4D 8D 9C 8F
  can1  000023F0   [8]  DE 6E 5F BA 6A 19 56 1E
  can1  000023F0   [8]  CD F2 6D 66 5F 5E B5 55
  can1  000023F0   [8]  FD 4F 3E 94 EC 04 25 17
  can1  000023F0   [8]  9D FF 00 7B B5 3A DA E2
  can1  000023F0   [8]  5B 59 96 5B 72 BB D0 EE
  can1  000023F0   [8]  C1 EF ED 41 46 C5 C5 C7
  can1  000023F0   [8]  85 F5 29 3E D3 AA 68 B2
  can1  000023F0   [8]  9B AF EF C6 CC A5 AA CD
  can1  000023F0   [8]  FD FC 3A 57 87 63 D4 B4
  can1  000023F0   [8]  3D 2A 08 20 DD B5 CE DC
  can1  000023F0   [8]  CC AB EB 46 BD 44 71 92
  can1  000023F0   [8]  5D 41 36 67 6B 98 DB CD
  can1  000023F0   [8]  F9 8B 66 A9 3D FD 98 38
  can1  000023F0   [8]  37 09 B8 7B D0 93 0B 8B
  can1  000023F0   [8]  1D FD 9E E0 56 E2 3F CE
  can1  000023F0   [8]  BA 0D 1F 54 79 B7 40 92
  can1  000023F0   [8]  24 90 AF 2E 58 64 A5 1B
  can1  000023F0   [8]  0C A8 FA 95 BC 99 F3 2C
  can1  000023F0   [8]  83 CA BF C4 CE B9 3E F5
  can1  000023F0   [8]  8F 77 72 F7 53 99 64 55
  can1  000023F0   [8]  5C F4 55 FE 1A 2C 2E 85
  can1  000023F0   [8]  52 33 51 B0 F5 A0 92 32
  can1  000023F0   [8]  29 AD D2 81 91 D3 69 0A
  can1  000023F0   [8]  C4 D0 48 51 BF D9 AD C8
  can1  000023F0   [8]  2E 3C D4 F2 D9 7E 9C D5
  can1  000023F0   [8]  20 1F 65 98 F5 08 C3 0E
  can1  000023F0   [8]  54 E4 53 7C D6 9A 2C BB
  can1  000023F0   [8]  31 64 66 4E BE 8C 71 54
  can1  000023F0   [8]  56 C6 4D D8 C1 E2 AA 62
  can1  000023F0   [8]  A0 92 ED B2 D6 AC 29 4C
  can1  000023F0   [8]  65 E8 DB 35 6A 33 48 19
  can1  000023F0   [8]  38 4C D3 D6 0E 28 B9 48
  can1  000023F0   [8]  72 5A FC D5 A1 6B 0E D2
  can1  000023F0   [8]  31 C1 A0 0D 34 04 20 C5
  can1  000023F0   [8]  59 B6 66 FE C0 B4 4E 36
  can1  000023F0   [8]  3F DA 33 F9 D5 C5 90 65
  can1  000023F0   [8]  5E 99 AE 18 4B D7 CB 50
  can1  000023F0   [8]  9F 2F 6C 51 36 B2 BE 46
  can1  000023F0   [8]  CF B1 2B C9 B7 1B E5 E6
  can1  000023F0   [8]  95 86 73 F7 52 1C E1 78
  can1  000023F0   [8]  F5 A7 0B 6D D1 E0 FE 34
  can1  000023F0   [8]  80 43 64 7C C2 BB B2 FE
  can1  000023F0   [8]  83 BD 24 76 D2 6E 38 21
  can1  000023F0   [8]  94 7D E3 E9 4B 41 92 BF
  can1  000023F0   [8]  09 B8 E3 0D D2 A3 3C 8E
  can1  000023F0   [8]  78 14 5C 5C C4 12 2E 1B
  can1  000023F0   [8]  14 D0 30 7A D3 1E E1 B8
  can1  000023F0   [8]  A7 FA 96 65 27 EF 1C F5
  can1  000023F0   [8]  AB DA 3E AB 71 A5 C9 30
  can1  000023F0   [8]  00 49 04 9C BC 4F D0 9A
  can1  000023F0   [8]  1A D0 19 21 BA F0 F6 ED
  can1  000023F0   [8]  D1 78 6E D9 64 F7 54 AB
  can1  000023F0   [8]  89 7B 6D 2E 87 A8 DC 5B
  can1  000023F0   [8]  69 B6 31 FD 89 77 60 46
  can1  000023F0   [8]  BF 37 04 D2 E5 D7 46 2E
  can1  000023F0   [8]  9A 99 C7 51 B1 78 41 B9
  can1  000023F0   [8]  D1 ED E4 DD CF EE F6 56
  can1  000023F0   [8]  75 EE A3 BE 2F B3 DA C0
  can1  000023F0   [8]  96 90 0E C8 69 7C CA 31
  can1  000023F0   [8]  E4 1B CE 7B D4 67 A6 0D
  can1  000023F0   [8]  31 11 D4 7F 5A 05 72 2C
  can1  000023F0   [8]  62 A3 34 08 66 29 87 9A
  can1  000023F0   [8]  40 2F 6A BF 62 F2 13 B9
  can1  000023F0   [8]  39 74 E6 9A 11 B5 3F CD
  can1  000023F0   [8]  04 57 90 F2 C0 81 51 49
  can1  000023F0   [8]  E5 F9 D1 98 57 68 75 CB
  can1  000023F0   [8]  0F F6 AA 86 66 DF 0E 4D
  can1  000023F0   [8]  67 2F 2F 52 C0 D5 B3 8F
  can1  000023F0   [8]  81 5A 98 C0 A6 8A 43 91
  can1  000023F0   [8]  7B A9 AB 51 50 17 B9 7A
  can1  000023F0   [8]  23 56 15 B0 29 0C 94 4F
  can1  000023F0   [8]  18 FE 21 9A 9A 2B C8 F7
  can1  000023F0   [8]  73 41 26 8D B5 C2 48 76
  can1  000023F0   [8]  A9 E6 AC CA EB 17 86 ED
  can1  000023F0   [8]  E2 CF EF 0D C4 A7 1F 89
  can1  000023F0   [8]  A6 87 D0 C7 8A EE E6 C0
  can1  000023F0   [8]  EE 8B 05 4F 38 6E 95 46
  can1  000023F0   [8]  E2 61 2C 86 5F 2D 63 CF
  can1  000023F0   [8]  61 4C 83 3C 26 F9 77 56
  can1  000023F0   [8]  DD AB 08 E3 C4 7B 8B 54
  can1  000023F0   [8]  95 D0 D4 D2 5A 35 71 2B
  can1  000023F0   [8]  A7 CA 84 FC AA 79 3E F5
  can1  000023F0   [8]  56 4B 6F ED 6D 48 43 14
  can1  000023F0   [8]  7B B4 E5 6F B9 1B 36 C9
  can1  000023F0   [8]  BD E8 E5 15 BD EB 95 F5
  can1  000023F0   [8]  3B 29 23 D4 FE C4 DF 3D
  can1  000023F0   [8]  CB 2E F3 FE ED 66 CF 6E
  can1  000023F0   [8]  63 00 8E 54 FD D3 EB 4F
  can1  000023F0   [8]  94 65 66 46 5E B4 DE 54
  can1  000023F0   [8]  E6 3C 13 EF 48 3A 91 11
  can1  000023F0   [8]  C9 34 6C 3F DE A1 32 86
  can1  000023F0   [8]  63 D3 AF 7A D5 D3 46 EF
  can1  000023F0   [8]  0C F8 85 7A 7E E3 3F F8
  can1  000023F0   [8]  E3 D5 93 2D 8E 72 2F F8
  can1  000023F0   [8]  F5 8B 1D 36 0A 46 5C F4
  can1  000023F0   [8]  15 05 11 11 51 3A 83 F5
  can1  000023F0   [8]  A0 44 44 7C D8 A8 5A 86
  can1  000023F0   [8]  22 33 4C 61 CF 14 5C 08
  can1  000023F0   [8]  8D 36 90 86 91 C5 49 6B
  can1  000023F0   [8]  27 97 3A B8 ED 4C 46 E6
  can1  000023F0   [8]  9E E2 40 F0 2F F1 F2 29
  can1  000023F0   [8]  15 B6 CB E5 93 41 45 6D
  can1  000023F0   [8]  46 B3 22 1F 36 28 11 BD
  can1  000023F0   [8]  62 9C 0A D0 2B 54 B7 28
  can1  000023F0   [8]  6A AE 47 15 32 67 D6 96
  can1  000023F0   [8]  C3 2E 45 9A 95 B3 8A 42
  can1  000023F0   [8]  33 AE 37 E7 23 B5 24 6F
  can1  000023F0   [8]  22 9F 6A BB 92 74 5A 09
  can1  000023F0   [8]  CD EC 3B CE 01 E0 D6 DC
  can1  000023F0   [8]  96 7E 7D C1 50 FC 02 79
  can1  000023F0   [8]  22 A0 BB 99 9A C2 98 2E
  can1  000023F0   [8]  92 0D C0 85 5C D6 3D C7
  can1  000023F0   [8]  21 94 01 8C D0 4D C2 25
  can1  000023F0   [8]  DA B9 CF 34 F3 22 AA 67
  can1  000023F0   [8]  A1 A1 01 2C 25 EE 7E 5F
  can1  000023F0   [8]  0F F4 7B 84 B6 FF 00 46
  can1  000023F0   [8]  5F 2B 26 5F EE 20 ED 4D
  can1  000023F0   [8]  77 66 91 68 6C 10 7D AE
  can1  000023F0   [8]  C2 37 E2 4B DB CC 28 55
  can1  000023F0   [8]  7C 93 1A D5 64 D3 4C BB
  can1  000023F0   [8]  EE EE 11 4E E7 7D 89 B7
  can1  000023F0   [8]  CB 55 40 71 BA 97 3B 90
  can1  000023F0   [8]  E4 64 5D D9 3A 3B C8 10
  can1  000023F0   [8]  AC 2A 78 DF C5 50 31 FC
  can1  000023F0   [8]  ED 91 F7 8F 34 19 90 BC
  can1  000023F0   [8]  1B 58 60 92 3D 69 18 63
  can1  000023F0   [8]  9A 06 44 D1 93 9F E9 5A
  can1  000023F0   [8]  BA 5A 17 D2 75 B8 C7 56
  can1  000023F0   [8]  B4 3F FA 0B 53 11 CD D9
  can1  000023F0   [8]  61 F4 E8 1F D5 05 39 97
  can1  000023F0   [8]  14 86 C8 5C 6D ED 55 9B
  can1  000023F0   [8]  19 EB 41 24 72 E1 FA 0C
  can1  000023F0   [8]  55 66 E3 83 43 02 33 D6
  can1  000023F0   [8]  9A 45 20 23 C5 47 DF 9A
  can1  000023F0   [8]  62 1B 49 9F 9A 80 2E DA
  can1  000023F0   [8]  4C C9 22 B0 ED 57 E5 60
  can1  000023F0   [8]  F7 1E 6F E3 40 15 6F 24
  can1  000023F0   [8]  C9 AA B0 7D FA 00 DD B2
  can1  000023F0   [8]  3F 25 59 91 B8 A6 59 32
  can1  000023F0   [8]  F4 A9 07 14 C9 2D C3 CD
  can1  000023F0   [8]  58 DB F2 D2 02 85 D4 7C
  can1  000023F0   [8]  1C 55 68 63 CC CB 9A BE
  can1  000023F0   [8]  80 74 9A 5D B3 AD ED BF
  can1  000023F0   [8]  A6 F0 C7 E9 5D 7D A4 39
  can1  000023F0   [8]  46 7D AC 47 72 3B 56 76
  can1  000023F0   [8]  1F 43 95 D4 58 DC EA 33
  can1  000023F0   [8]  48 73 8C FC B5 94 EB F3
  can1  000023F0   [8]  9A 6C 48 3F 80 FA D1 E5
  can1  000023F0   [8]  F0 C5 CF 00 73 40 31 16
  can1  000023F0   [8]  65 69 30 3E 55 15 68 3C
  can1  000023F0   [8]  97 64 41 C6 CE A1 32 40
  can1  000023F0   [8]  6A 40 76 3A 5E A1 25 CD
  can1  000023F0   [8]  CC 7A 7E 02 10 B8 9A E1
  can1  000023F0   [8]  97 05 F1 FC 35 AD 30 4B
  can1  000023F0   [8]  EB 87 B6 89 78 8C E1 F8
  can1  000023F0   [8]  C0 5C 53 4B 95 14 56 BE
  can1  000023F0   [8]  D3 C7 98 04 5B 4F 1B 62
  can1  000023F0   [8]  1B 49 C6 3A D7 1B A9 69
  can1  000023F0   [8]  CD 6F 3E 23 1C 91 93 1F
  can1  000023F0   [8]  F7 69 B2 4A 01 19 33 F2
  can1  000023F0   [8]  8C 1E B5 5E 75 08 51 70
  can1  000023F0   [8]  CC F2 36 15 50 64 9A 41
  can1  000023F0   [8]  D4 BA BE 1A D6 E5 83 CD
  can1  000023F0   [8]  B8 36 BA 5C 3E B7 0D 96
  can1  000023F0   [8]  A9 74 BB 0B 6D 3A 4B BF
  can1  000023F0   [8]  B4 78 9E 2B BF 3E 2F 29
  can1  000023F0   [8]  97 6E 36 D1 A7 40 B9 8D
  can1  000023F0   [8]  1F 83 C6 C5 8F 4F F1 34
  can1  000023F0   [8]  6E 47 F0 B2 8A A3 77 A4
  can1  000023F0   [8]  78 9F 4D 19 7B 48 AF A3
  can1  000023F0   [8]  5E 5B CA 1B 98 52 D3 A8
  can1  000023F0   [8]  B9 BB 99 F6 DA 8D B5 F1
  can1  000023F0   [8]  0B 10 20 FA 54 8F 10 5C
  can1  000023F0   [8]  FF 00 2F EB 43 2C A9 27
  can1  000023F0   [8]  5C 0E BE 95 13 01 F7 4D
  can1  000023F0   [8]  04 11 91 81 F3 54 75 20
  can1  000023F0   [8]  36 A3 23 34 C6 35 E1 30
  can1  000023F0   [8]  CB B3 7E E5 2B B9 1B D6
  can1  000023F0   [8]  A3 D9 21 3F 22 EE A0 91
  can1  000023F0   [8]  F1 33 29 E4 60 FA 55 CD
  can1  000023F0   [8]  FB A2 A6 04 57 2D FE AC
  can1  000023F0   [8]  FA AF 34 96 9C C9 4C 67
  can1  000023F0   [8]  49 68 3F 76 2A 59 69 14
  can1  000023F0   [8]  89 56 9E 05 30 EA 59 B7
  can1  000023F0   [8]  1C D5 E0 BF 2D 30 2B 4F
  can1  000023F0   [8]  1D 66 96 F2 A5 DD D8 55
  can1  000023F0   [8]  A2 4E AF C2 EB 2D E5 C4
  can1  000023F0   [8]  D3 7F 04 29 B4 FD 5A BB
  can1  000023F0   [8]  39 01 B5 F0 F4 FD CC 83
  can1  000023F0   [8]  68 C7 BF 15 2B 71 BD 8E
  can1  000023F0   [8]  35 60 CD C7 94 3D 2A 2B
  can1  000023F0   [8]  DB 46 44 24 0C 9F 61 4B
  can1  000023F0   [8]  76 06 34 46 47 9D B7 84
  can1  000023F0   [8]  F2 C7 03 1D 6A 59 57 36
  can1  000023F0   [8]  B3 36 F0 8A A3 A9 EE DD
  can1  000023F0   [8]  85 46 A0 43 6B 06 D8 32
  can1  000023F0   [8]  C5 73 9A 9F 72 AE 50 8C
  can1  000023F0   [8]  AB 53 B8 17 A1 99 E5 89
  can1  000023F0   [8]  61 F3 30 A3 BF AF FB 35
  can1  000023F0   [8]  DB 69 57 91 C9 1C 31 45
  can1  000023F0   [8]  FB B2 DC EC 1F DD 1D 4D
  can1  000023F0   [8]  52 93 65 5F A1 D0 0E 07
  can1  000023F0   [8]  1D 2B 1B 50 D2 2D DA 19
  can1  000023F0   [8]  3E EC 7B BA C8 79 35 37
  can1  000023F0   [8]  33 39 98 F4 C4 BA E6 C1
  can1  000023F0   [8]  B7 65 F6 7F B9 4D 96 EE
  can1  000023F0   [8]  D7 46 43 1E 91 12 CD 73
  can1  000023F0   [8]  9F DE DC 49 D6 AE C5 AD
  can1  000023F0   [8]  8C 1D 42 39 E5 FF 00 48
  can1  000023F0   [8]  B9 99 AE 23 27 89 59 B3
  can1  000023F0   [8]  8F 6A A1 73 3C 36 8B FB
  can1  000023F0   [8]  D7 5C FA 0E B5 1B 85 CC
  can1  000023F0   [8]  AB 8D 76 D0 9E 51 CF A7
  can1  000023F0   [8]  15 6E C3 C4 DE 5F 31 5D
  can1  000023F0   [8]  14 2B D1 25 EF CD 0F 40
  can1  000023F0   [8]  46 85 FD 8E 91 E2 06 7D
  can1  000023F0   [8]  C0 58 6A 18 F9 24 5E 9E
  can1  000023F0   [8]  D5 CB 15 BE D3 EE 24 D2
  can1  000023F0   [8]  EF 6D 5E 4B A4 E5 04 43
  can1  000023F0   [8]  3B 87 AD 09 93 E4 47 1C
  can1  000023F0   [8]  BB A4 96 29 A2 31 5C 21
  can1  000023F0   [8]  C3 2B 53 4D 1B 8C 8C F5
  can1  000023F0   [8]  F5 A8 B1 B4 FB 50 31 AC
  can1  000023F0   [8]  73 4C 1F 29 E6 91 2C 5B
  can1  000023F0   [8]  83 BE 0E 9F 73 E6 14 EB
  can1  000023F0   [8]  49 FE CE F2 10 8D 26 E0
  can1  000023F0   [8]  31 B7 AF 14 C3 72 A4 AF
  can1  000023F0   [8]  FE 95 2E 14 AE 5C 9C 1E
  can1  000023F0   [8]  D5 2C 4F 9C AF E3 48 09
  can1  000023F0   [8]  AE 62 65 B6 DC CB F7 58
  can1  000023F0   [8]  2F E7 CD 36 C4 66 5A 63
  can1  000023F0   [8]  3A AB 64 FD CA D3 D9 33
  can1  000023F0   [8]  40 C9 11 6A C0 8A 98 89
  can1  000023F0   [8]  A1 8F E6 AD 28 E2 3B 68
  can1  000023F0   [8]  02 29 60 AC E9 6D 79 E9
  can1  000023F0   [8]  56 84 77 1E 02 B0 FF 00
  can1  000023F0   [8]  89 35 CC 8C 30 64 9F 8F
  can1  000023F0   [8]  C0 62 BA 3B B8 33 0C 51
  can1  000023F0   [8]  9F 99 57 9F C6 91 5E 46
  can1  000023F0   [8]  7D 96 92 3C 8F 34 2A AB
  can1  000023F0   [8]  49 F9 E2 A3 B9 82 4B 35
  can1  000023F0   [8]  92 48 27 55 6F E1 56 93
  can1  000023F0   [8]  68 27 D6 92 41 A1 E6 D9
  can1  000023F0   [8]  79 6E AE 66 C3 37 96 E7
  can1  000023F0   [8]  CC 90 36 E0 C7 27 9A B7
  can1  000023F0   [8]  AA A7 97 2D BD 98 C8 8E
  can1  000023F0   [8]  25 F3 18 63 F8 DA A5 EE
  can1  000023F0   [8]  3E 85 71 9A 4C 7C DC 77
  can1  000023F0   [8]  A0 92 C4 3F 2D 74 D6 12
  can1  000023F0   [8]  34 15 13 AE D3 A6 96 6D
  can1  000023F0   [8]  C5 F8 51 EF 9A B8 E8 92
  can1  000023F0   [8]  0C 3A 86 1E E2 86 43 D0
  can1  000023F0   [8]  86 6B 70 EB 20 8C 2A 33
  can1  000023F0   [8]  AE 37 85 AE 4F 5D D2 59
  can1  000023F0   [8]  0C 6C 91 26 40 F9 CA 47
  can1  000023F0   [8]  B5 5A AE 2F 4B 06 E7 2D
  can1  000023F0   [8]  38 BE 59 BE C9 A7 43 9B
  can1  000023F0   [8]  C9 B8 11 3A 64 6D C7 26
  can1  000023F0   [8]  B2 AF 7C 0F 7D 68 D0 BE
  can1  000023F0   [8]  AB AC E9 76 B3 CE 7F 77
  can1  000023F0   [8]  13 F2 F9 E9 8A 5A 06 88
  can1  000023F0   [8]  AD A8 FC 3F D5 61 6F DD
  can1  000023F0   [8]  EA 3A 74 92 67 EE 36 E8
  can1  000023F0   [8]  EB 9A BE D3 2F B4 C6 2B
  can1  000023F0   [8]  A8 5A B4 6A 0E 04 8A 77
  can1  000023F0   [8]  21 A9 76 12 66 A7 87 AE
  can1  000023F0   [8]  7F D2 5A 09 E6 C2 98 D9
  can1  000023F0   [8]  D7 E5 EE 2B BB B7 BE 99
  can1  000023F0   [8]  F4 5B 54 DC BB 8A 73 20
  can1  000023F0   [8]  1F 33 2F A5 16 2C E6 BC
  can1  000023F0   [8]  5B A7 19 E1 FE D8 81 77
  can1  000023F0   [8]  5C DB 0F DF 7F B7 1F AD
  can1  000023F0   [8]  73 A4 89 14 48 BD 0D 31
  can1  000023F0   [8]  11 B5 46 41 D9 9E D4 84
  can1  000023F0   [8]  42 C3 9F 6A 46 00 7E 34
  can1  000023F0   [8]  08 48 DC BF 18 1B 7A 52
  can1  000023F0   [8]  5B 9D B3 2F B1 A7 60 B1
  can1  000023F0   [8]  05 CB EE B9 95 CA ED CB
  can1  000023F0   [8]  67 15 36 9A DF E9 F1 E3
  can1  000023F0   [8]  92 E0 A5 43 D0 A3 42 FB
  can1  000023F0   [8]  FE 41 AD 8E 85 22 6F CB
  can1  000023F0   [8]  8A 83 4C 19 7A AD C4 B4
  can1  000023F0   [8]  3A D8 7F D5 8A 57 7D B4
  can1  000023F0   [8]  6E 32 78 97 9C 55 F8 62
  can1  000023F0   [8]  E3 9A A1 32 CC 70 72 09
  can1  000023F0   [8]  AD 7F B3 00 31 B7 BF AD
  can1  000023F0   [8]  3B 06 82 3D 89 CF DD 35
  can1  000023F0   [8]  6A C7 40 92 66 0F B0 20
  can1  000023F0   [8]  E9 9A A0 B7 53 AA D3 AC
  can1  000023F0   [8]  D2 C6 D0 42 9E A4 9F AD
  can1  000023F0   [8]  59 23 23 06 B2 13 62 8E
  can1  000023F0   [8]  06 05 45 39 86 28 9E 69
  can1  000023F0   [8]  80 DA A3 2C 71 9A 22 07
  can1  000023F0   [8]  95 69 41 EF F5 D8 61 B8
  can1  000023F0   [8]  01 05 D4 BF 6B 28 87 8E
  can1  000023F0   [8]  79 AA 93 DC 79 EF A8 5D
  can1  000023F0   [8]  C8 7F E5 A3 73 EB 8A 72
  can1  000023F0   [8]  8B 29 76 22 85 24 6F 33
  can1  000023F0   [8]  CC 8F 1B 54 37 CA 7A E6
  can1  000023F0   [8]  95 01 EF 49 31 B2 78 F0
  can1  000023F0   [8]  2B A1 D1 76 E5 49 1F 7F
  can1  000023F0   [8]  8D BE B4 08 EB AD B2 14
  can1  000023F0   [8]  47 19 D9 17 4F A3 7A 56
  can1  000023F0   [8]  9F 41 C5 17 09 05 35 D1
  can1  000023F0   [8]  5D 76 B0 C8 A0 93 36 46
  can1  000023F0   [8]  D2 B4 6B 7B 8B E7 F2 A3
  can1  000023F0   [8]  DA 3F 7B 27 57 35 E4 DE
  can1  000023F0   [8]  27 B5 D4 BC 5F AA FF 00
  can1  000023F0   [8]  68 49 A7 7D 89 42 08 E2
  can1  000023F0   [8]  F3 26 F9 82 D5 2F 31 A6
  can1  000023F0   [8]  66 5E C7 E3 38 33 22 EA
  can1  000023F0   [8]  92 C8 88 3E 54 56 EC 3A
  can1  000023F0   [8]  55 5D 3F 5F BB B8 D4 22
  can1  000023F0   [8]  B5 D6 56 23 6E EE 12 40
  can1  000023F0   [8]  F0 EC C0 3D 4D 2D 10 ED
  can1  000023F0   [8]  CC 1A EE 89 2E 83 2A DE
  can1  000023F0   [8]  59 33 49 A7 16 DA B3 29
  can1  000023F0   [8]  DD E5 1F 4A DE F0 B5 C3
  can1  000023F0   [8]  49 62 D6 B3 FF 00 AC 8F
  can1  000023F0   [8]  E7 8F FD A4 34 AE 33 63
  can1  000023F0   [8]  09 9C 4C 81 E2 6F 95 D4
  can1  000023F0   [8]  F7 15 E7 F2 D9 BE 9D 79
  can1  000023F0   [8]  75 60 DD 20 93 09 EE A7
  can1  000023F0   [8]  91 40 BA 95 D8 75 A8 E8
  can1  000023F0   [8]  01 98 A6 1E 28 00 90 32
  can1  000023F0   [8]  95 72 CD B7 1F 28 DB 8A
  can1  000023F0   [8]  24 5F F4 B9 F7 F0 A8 3C
  can1  000023F0   [8]  C2 47 6A 36 04 53 BC 43
  can1  000023F0   [8]  15 DC B1 B3 6E 2A 7A 9E
  can1  000023F0   [8]  F5 2E 9A C4 6A 16 E4 7F
  can1  000023F0   [8]  7C 0A 5B 81 AF AA 67 CA
  can1  000023F0   [8]  64 6C 73 0C 9D 3F D9 6A
  can1  000023F0   [8]  87 48 5F 9A 9E C2 EA 75
  can1  000023F0   [8]  91 2D 57 BA 3B 1A 86 33
  can1  000023F0   [8]  62 DE 3C A0 23 76 6B 56
  can1  000023F0   [8]  DE 06 DB F3 63 A6 39 ED
  can1  000023F0   [8]  54 96 A3 7D 8D 7B 3D 33
  can1  000023F0   [8]  CC EA C0 E3 DB 15 BC 9A
  can1  000023F0   [8]  44 29 8D C4 D6 82 25 69
  can1  000023F0   [8]  2D EC 93 74 F8 1E 95 5F
  can1  000023F0   [8]  FB 7E DB 3B 63 42 68 68
  can1  000023F0   [8]  46 A5 AC BE 7D B2 4B FD
  can1  000023F0   [8]  EA 96 B1 10 55 2D 46 E2
  can1  000023F0   [8]  38 23 1B E5 09 B4 EF 3F
  can1  000023F0   [8]  EE 8E B4 0E 3B 9E 77 05
  can1  000023F0   [8]  ED B7 FC 24 5A 8C 96 2B
  can1  000023F0   [8]  1C 76 C2 19 A4 46 55 C1
  can1  000023F0   [8]  5D B8 15 06 95 3E 97 6D
  can1  000023F0   [8]  A7 47 F6 F3 18 59 AE F6
  can1  000023F0   [8]  48 AC 9B B3 0E D3 5A 72
  can1  000023F0   [8]  DC B4 63 68 D7 12 3D 91
  can1  000023F0   [8]  FB 4A 22 8C 6F 42 23 DA
  can1  000023F0   [8]  7F DD AB 03 B7 35 9B D1
  can1  000023F0   [8]  92 4B 1E 77 D7 45 60 DB
  can1  000023F0   [8]  76 3F 46 A6 80 DF D1 65
  can1  000023F0   [8]  49 EF 02 19 87 9A 99 7F
  can1  000023F0   [8]  2C F5 C7 AD 74 74 48 96
  can1  000023F0   [8]  14 52 03 96 3A 02 5D 6A
  can1  000023F0   [8]  72 C9 3A AF 07 27 69 F9
  can1  000023F0   [8]  7D AB 5A 3B 1B 38 06 D0
  can1  000023F0   [8]  10 01 D6 B4 65 DC CC B9
  can1  000023F0   [8]  FB 24 92 7E EB 60 E9 80
  can1  000023F0   [8]  57 00 D7 27 E2 4F 0E C3
  can1  000023F0   [8]  72 A6 48 17 64 DD 39 1C
  can1  000023F0   [8]  52 DC 93 9F D2 6E 5E EA
  can1  000023F0   [8]  D6 FB 45 BE 8A 61 6B FE
  can1  000023F0   [8]  AF CC DB F2 A3 1C E2 A8
  can1  000023F0   [8]  68 1E 65 AE A3 66 B2 96
  can1  000023F0   [8]  DD 19 96 DE 4C 8F F6 AB
  can1  000023F0   [8]  3B 58 AE A7 5E 45 72 9E
  can1  000023F0   [8]  2B 8B C9 D7 ED E5 1C AD
  can1  000023F0   [8]  D5 AF CD F5 53 8A 62 30
  can1  000023F0   [8]  9F 15 11 A0 48 6B 0A 8B
  can1  000023F0   [8]  EB 40 82 E0 2F EE F0 5B
  can1  000023F0   [8]  95 E8 5B 38 A3 CB 7B 99
  can1  000023F0   [8]  E5 8C 48 AA 65 8F 92 46
  can1  000023F0   [8]  78 E2 94 F6 2A 3D 8A 77
  can1  000023F0   [8]  E5 BE DF 28 91 B7 37 1C
  can1  000023F0   [8]  81 ED 49 67 FF 00 1F 70
  can1  000023F0   [8]  7F D7 45 FE 74 44 19 B1
  can1  000023F0   [8]  7B 80 C5 79 F9 60 9F AF
  can1  000023F0   [8]  D4 53 F4 4E BC D3 27 A9
  can1  000023F0   [8]  D6 42 70 2B 2F 52 93 E7
  can1  000023F0   [8]  E0 D0 53 3A BB 15 2A 9C
  can1  000023F0   [8]  F5 DD 8F D2 B7 AD DA 11
  can1  000023F0   [8]  1A F9 8A 1C EF 52 7D B8
  can1  000023F0   [8]  35 51 D4 65 E6 BB 82 DC
  can1  000023F0   [8]  8F 2A 65 CF A6 3F 2A 77
  can1  000023F0   [8]  F6 AC A5 3E 42 41 E9 D7
  can1  000023F0   [8]  35 A0 9B B9 91 7B 71 24
  can1  000023F0   [8]  8F 97 6C D5 2F 3F 6C 80
  can1  000023F0   [8]  96 C5 21 1D A7 87 2E 96
  can1  000023F0   [8]  5D 0E 17 27 BB 8C FD 18
  can1  000023F0   [8]  D6 A4 B2 08 A2 67 6E 8B
  can1  000023F0   [8]  59 58 24 B5 29 EA 37 C6
  can1  000023F0   [8]  D5 10 A6 0E EA CF 8B 5E
  can1  000023F0   [8]  B6 86 59 9E FA 51 12 7C
  can1  000023F0   [8]  BB 49 19 F5 AA B0 D2 38
  can1  000023F0   [8]  FB BB B3 73 E2 3D 6E E6
  can1  000023F0   [8]  C3 98 A9 3C 27 AC 5D 69
  can1  000023F0   [8]  7E 1D 96 E5 2C 24 BA 46
  can1  000023F0   [8]  B9 2C FB 1F 90 7D 2A E7
  can1  000023F0   [8]  1D 34 1E C7 3B 67 B8 5B
  can1  000023F0   [8]  80 E5 BA 72 0F 6A B2 32
  can1  000023F0   [8]  07 C8 D8 AC 98 89 22 24
  can1  000023F0   [8]  73 5A D1 CA E3 60 2D F3
  can1  000023F0   [8]  75 A0 0D CF 0C 37 FC 54
  can1  000023F0   [8]  0B FF 00 5E D2 7F E8 49
  can1  000023F0   [8]  5D 9D 02 65 71 72 8B 16
  can1  000023F0   [8]  E9 3E 5E 4F 5F 6A 49 6F
  can1  000023F0   [8]  A0 8E CC 5C EF CC 6D F7
  can1  000023F0   [8]  48 EF 57 CA 2B 11 D8 23
  can1  000023F0   [8]  7D 93 E7 3F BC 7C B1 3E
  can1  000023F0   [8]  B5 87 FD B3 06 AB 77 7B
  can1  000023F0   [8]  6F A7 DE C7 E5 69 DF F1
  can1  000023F0   [8]  F1 B3 96 34 DE A5 93 5D
  can1  000023F0   [8]  E8 F6 B7 B2 2D C2 DD DC
  can1  000023F0   [8]  C4 A1 3E 68 F3 B9 19 45
  can1  000023F0   [8]  73 12 4F 75 65 78 61 9D
  can1  000023F0   [8]  C4 B6 98 1F 38 1C C6 69
  can1  000023F0   [8]  05 B4 39 CD 79 5C 6A 3A
  can1  000023F0   [8]  53 45 21 36 53 5E C6 D3
  can1  000023F0   [8]  20 6E 1D 87 4A 86 FD 40
  can1  000023F0   [8]  BB 56 55 DB BE 7D E3 9F
  can1  000023F0   [8]  6A 8E B7 03 A9 91 30 2B
  can1  000023F0   [8]  96 F1 98 DB 73 A3 37 FB
  can1  000023F0   [8]  33 0F FD 06 8E 80 73 32
  can1  000023F0   [8]  0E 78 A6 1A 64 8C E3 6D
  can1  000023F0   [8]  40 70 01 26 80 24 99 26
  can1  000023F0   [8]  8D 3F 7B 6E 63 E7 A9 EF
  can1  000023F0   [8]  51 42 AC 6F 8E 1D 93 F7
  can1  000023F0   [8]  5D BF 0A 52 77 88 D6 E5
  can1  000023F0   [8]  1B DE 2E E4 E7 3E E6 9F
  can1  000023F0   [8]  63 FF 00 1F 31 FF 00 BD
  can1  000023F0   [8]  51 B0 BA 9A 57 D2 82 AF
  can1  000023F0   [8]  EA DB BF 2A 5D 31 F6 9E
  can1  000023F0   [8]  6A EF 70 B6 A7 4C 93 FE
  can1  000023F0   [8]  EE B2 2F 65 CC B4 0C EC
  can1  000023F0   [8]  60 97 39 F7 C5 58 8A 46
  can1  000023F0   [8]  1D F1 CF 5D D5 50 D0 37
  can1  000023F0   [8]  2C 2C C4 3F 27 35 72 29
  can1  000023F0   [8]  F0 A7 DE 98 10 4E F9 AC
  can1  000023F0   [8]  CB 83 F3 55 08 E9 74 0B
  can1  000023F0   [8]  80 74 11 17 F7 24 70 7F
  can1  000023F0   [8]  9D 6F 5D DC FF 00 C5 32
  can1  000023F0   [8]  92 77 3B 57 F5 C5 2B 0E
  can1  000023F0   [8]  E6 35 F6 A2 65 8D 52 4E
  can1  000023F0   [8]  71 D3 14 CD 1B 56 B6 D3
  can1  000023F0   [8]  AE EE E5 BB 63 14 26 14
  can1  000023F0   [8]  C9 E5 BA 67 26 B3 D8 47
  can1  000023F0   [8]  3B A8 DD 45 75 E3 7D 66
  can1  000023F0   [8]  48 18 18 A6 D2 24 65 F9
  can1  000023F0   [8]  76 EE C1 84 D5 2F 0C 79
  can1  000023F0   [8]  D3 68 37 D6 90 49 7F 81
  can1  000023F0   [8]  73 C8 B5 DA 3D 6B 79 B5
  can1  000023F0   [8]  6B 87 42 A4 2A FE 59 DF
  can1  000023F0   [8]  F7 81 C3 7C D9 E6 A4 55
  can1  000023F0   [8]  F9 B0 4D 62 55 C9 D1 83
  can1  000023F0   [8]  1D A0 1E 95 6E 03 92 01
  can1  000023F0   [8]  6C 4F 46 8D E3 FC F0 6B
  can1  000023F0   [8]  BB A0 19 83 AF 92 B0 F9
  can1  000023F0   [8]  F7 AA E1 64 BD D3 77 D8
  can1  000023F0   [8]  DD 80 B0 FF 00 AC 85 A2
  can1  000023F0   [8]  C8 F5 AD 75 1A 66 FC 4E
  can1  000023F0   [8]  BE 4C 7B 4F 18 18 AF 22
  can1  000023F0   [8]  F0 85 C7 87 74 5B AD 55
  can1  000023F0   [8]  F5 3B 9F 22 79 13 EC F2
  can1  000023F0   [8]  DB 73 F3 8C E4 BD 1D 04
  can1  000023F0   [8]  7A 1D A6 A3 A7 E9 DA 45
  can1  000023F0   [8]  BD D4 77 52 5E DB CF F2
  can1  000023F0   [8]  C2 E8 B9 35 83 E2 BD 5A
  can1  000023F0   [8]  3D 43 47 9C B4 6F 10 B7
  can1  000023F0   [8]  B9 85 D0 70 59 81 C8 AC
  can1  000023F0   [8]  B9 B5 2A DD 59 CE 68 B6
  can1  000023F0   [8]  D7 3E 22 91 E2 82 D8 94
  can1  000023F0   [8]  B3 B8 8E E5 56 46 5F BB
  can1  000023F0   [8]  F3 85 A6 34 7F 6A D7 20
  can1  000023F0   [8]  8F 6A E1 79 C7 A6 29 88
  can1  000023F0   [8]  E8 99 42 70 C6 B9 2F 1B
  can1  000023F0   [8]  F3 A8 69 89 D7 CB B7 91
  can1  000023F0   [8]  8F E2 C2 91 27 28 E7 15
  can1  000023F0   [8]  18 39 14 00 D6 15 13 8F
  can1  000023F0   [8]  94 8F 5A 00 BD A8 0B 87
  can1  000023F0   [8]  87 33 34 5C 38 00 20 3F
  can1  000023F0   [8]  DD AA 64 6D BB 91 87 F0
  can1  000023F0   [8]  AF F8 54 EC 0C A1 76 9F
  can1  000023F0   [8]  E9 12 7F BD 4F D3 D1 8D
  can1  000023F0   [8]  E2 85 E3 8A 60 49 27 FC
  can1  000023F0   [8]  B4 F6 E2 A6 B3 EB 4D 88
  can1  000023F0   [8]  DB 8E 4F DD D5 0B 86 F9
  can1  000023F0   [8]  E8 B8 1D 84 6F E9 53 29
  can1  000023F0   [8]  AA 88 D1 21 73 C1 AB 30
  can1  000023F0   [8]  C9 EF 4C 09 5D B8 AC DB
  can1  000023F0   [8]  96 39 A6 23 4F C3 73 E2
  can1  000023F0   [8]  D2 F6 3F FA 68 8D FA 1A
  can1  000023F0   [8]  EA 67 6F 3B C2 CB FF 00
  can1  000023F0   [8]  5D 87 E3 CD 2E B7 28 E6
  can1  000023F0   [8]  AF 9B 19 AC D4 B9 D8 6F
  can1  000023F0   [8]  62 96 52 AB 79 67 25 B2
  can1  000023F0   [8]  B7 5D AE 48 C5 20 48 9D
  can1  000023F0   [8]  E7 1A 87 C4 4B E3 B5 A0
  can1  000023F0   [8]  6B BD 3D ED 23 8E 62 15
  can1  000023F0   [8]  88 28 A7 75 67 68 16 96
  can1  000023F0   [8]  93 CB 7F 6F 70 A9 BD A6
  can1  000023F0   [8]  4F 24 19 36 EE CE 78 AD
  can1  000023F0   [8]  24 EF F0 8D 59 15 6D D1
  can1  000023F0   [8]  A2 0D 94 11 73 F7 73 C2
  can1  000023F0   [8]  E2 9F E6 73 81 59 3D C9
  can1  000023F0   [8]  25 8F 07 EF 73 57 AC E3
  can1  000023F0   [8]  A6 D6 68 A7 00 B3 C2 E1
  can1  000023F0   [8]  C2 8E F5 EA 50 CF 1C D0
  can1  000023F0   [8]  A4 D1 30 68 DD 77 29 1D
  can1  000023F0   [8]  EA 8A E8 66 F8 81 40 B5
  can1  000023F0   [8]  F3 31 F7 FF 00 74 DE E0
  can1  000023F0   [8]  D5 1D 3A 48 E0 76 F2 C1
  can1  000023F0   [8]  8F CD E1 E3 03 20 9E C6
  can1  000023F0   [8]  AD 08 B0 97 05 31 09 FB
  can1  000023F0   [8]  C3 91 5C 86 AD E1 87 FE
  can1  000023F0   [8]  DC FE D9 D3 86 67 93 E4
  can1  000023F0   [8]  64 E1 47 3D 69 3D 84 63
  can1  000023F0   [8]  E8 1A 66 A1 A5 F8 9E 5B
  can1  000023F0   [8]  7B 96 9A 1D 02 17 F3 1A
  can1  000023F0   [8]  09 A5 CC 5F 35 4B E2 4D
  can1  000023F0   [8]  52 D3 53 75 8F 47 B6 1F
  can1  000023F0   [8]  64 92 5C 8F 2C EC 06 41
  can1  000023F0   [8]  C0 6A CF A9 7C C1 6D A9
  can1  000023F0   [8]  A6 8C 97 37 63 30 5C CF
  can1  000023F0   [8]  84 5F 29 87 A5 3B C3 2B
  can1  000023F0   [8]  14 F0 5C DD A1 7D CB 20
  can1  000023F0   [8]  8C 96 EB D3 34 C4 6B 90
  can1  000023F0   [8]  D2 4A A3 DE B8 0F 11 EA
  can1  000023F0   [8]  76 D7 BA ED CC 90 C9 BA
  can1  000023F0   [8]  24 C4 4B FF 00 01 A0 46
  can1  000023F0   [8]  1C 93 C6 7B D2 23 AB 74
  can1  000023F0   [8]  A4 21 C4 D4 4D 4C 09 E2
  can1  000023F0   [8]  77 60 03 31 6C 52 AA 6E
  can1  000023F0   [8]  90 D2 60 53 B8 51 E6 9C
  can1  000023F0   [8]  54 F6 09 B7 CC 93 1F 74
  can1  000023F0   [8]  50 22 A6 77 E4 FA 9A 9E
  can1  000023F0   [8]  DB EF 51 61 9A 8A DF 2D
  can1  000023F0   [8]  53 98 E5 A8 03 B1 43 CD
  can1  000023F0   [8]  13 73 56 22 CB 74 AA 33
  can1  000023F0   [8]  F3 48 09 B4 11 B3 59 50
  can1  000023F0   [8]  7E EC D1 B4 7F 8F 6A E9
  can1  000023F0   [8]  E0 32 0B 2B BB 40 70 41
  can1  000023F0   [8]  97 83 DC 55 7F 0F 99 DB
  can1  000023F0   [8]  C4 56 D1 DA B4 62 56 56
  can1  000023F0   [8]  CF 98 38 D9 DE A6 D7 D0
  can1  000023F0   [8]  65 28 24 87 49 F1 85 C2
  can1  000023F0   [8]  22 5C BC 51 5D 0D CF 26
  can1  000023F0   [8]  37 02 0F CE 6A 2B D6 9B
  can1  000023F0   [8]  49 D7 E6 8D 12 06 FB 40
  can1  000023F0   [8]  DC 8E C9 9D 9D C1 AB 92
  can1  000023F0   [8]  7A A1 68 56 8C FF 00 7B
  can1  000023F0   [8]  E6 39 C9 27 BD 40 07 23
  can1  000023F0   [8]  9E 9C 54 0C B9 19 AB 2A
  can1  000023F0   [8]  FF 00 2E 28 19 35 B6 99
  can1  000023F0   [8]  15 FC 4F 25 C5 D5 C4 4F
  can1  000023F0   [8]  9C 46 21 FE 75 D4 78 51
  can1  000023F0   [8]  75 4B 7B 47 B1 9A 26 F2
  can1  000023F0   [8]  50 E6 D6 47 EE B4 C7 72
  can1  000023F0   [8]  CE BD 0E B9 71 0C 76 96
  can1  000023F0   [8]  30 A6 EC F9 AF 29 3F 2F
  can1  000023F0   [8]  1F C3 59 4B 63 E2 58 55
  can1  000023F0   [8]  3E 42 CC 7F BB FC 06 87
  can1  000023F0   [8]  2B 06 85 BB 58 B5 7D 87
  can1  000023F0   [8]  FB 4A CA 59 A5 57 F9 1D
  can1  000023F0   [8]  57 E6 50 6A FC EF A8 5B
  can1  000023F0   [8]  40 5E 1D 35 EE 24 D9 F2
  can1  000023F0   [8]  A3 71 CD 2B 85 8E 18 59
  can1  000023F0   [8]  78 B6 44 64 4D 17 4F B7
  can1  000023F0   [8]  76 FF 00 96 8D 23 36 2A
  can1  000023F0   [8]  54 F0 BE A9 6D 89 9A D0
  can1  000023F0   [8]  CD 3F DE F2 E2 2A 91 66
  can1  000023F0   [8]  8D 2F B9 26 6D CF 87 3C
  can1  000023F0   [8]  45 33 EF 9A D1 3E 86 44
  can1  000023F0   [8]  F9 6A D6 95 A6 6B 1A 65
  can1  000023F0   [8]  FC F8 8E 0F B1 48 A3 3F
  can1  000023F0   [8]  BC 19 C8 E8 6A AD 1E E2
  can1  000023F0   [8]  B9 AF FE 96 23 38 0A 5F
  can1  000023F0   [8]  A7 D2 B9 6D 57 C2 7E 75
  can1  000023F0   [8]  B9 93 4C B7 8D 71 D7 93
  can1  000023F0   [8]  BC D4 B1 9C 35 DD B4 D6
  can1  000023F0   [8]  D3 F9 72 81 9F 63 49 6F
  can1  000023F0   [8]  95 90 54 81 70 9A 8C 9E
  can1  000023F0   [8]  73 4C 09 E0 F9 62 79 4F
  can1  000023F0   [8]  4E 82 A4 8D B2 28 02 A9
  can1  000023F0   [8]  E5 CD 5C 50 23 D3 CF AB
  can1  000023F0   [8]  53 15 8A 2B 1F 15 24 49
  can1  000023F0   [8]  83 48 0B 99 E2 AB 49 D6
  can1  000023F0   [8]  81 9D 8A 54 C2 A9 00 E0
  can1  000023F0   [8]  6A 44 3C D5 08 B3 BB 8A
  can1  000023F0   [8]  6A C5 E6 1A 43 35 AD 2C
  can1  000023F0   [8]  80 0B 26 76 BA 90 41 C5
  can1  000023F0   [8]  6D 4A 9F BA 5B 91 D1 BA
  can1  000023F0   [8]  D2 40 60 EA FF 00 3C 65
  can1  000023F0   [8]  87 F0 D6 56 97 E7 2E B3
  can1  000023F0   [8]  6E D6 8D 0A CE 77 22 99
  can1  000023F0   [8]  94 95 E5 4D 34 ED A8 AC
  can1  000023F0   [8]  51 F1 7D 95 C5 B7 89 E3
  can1  000023F0   [8]  FB 6A 40 1A E9 1A 57 FB
  can1  000023F0   [8]  3E 70 4E 70 4D 5B D4 5D
  can1  000023F0   [8]  B5 1D 12 0B B7 6F BA DE
  can1  000023F0   [8]  5B B7 1F BB 90 7D CA 2F
  can1  000023F0   [8]  7D 46 F4 5A 99 9F 30 C6
  can1  000023F0   [8]  68 69 BA 75 DE AD 3F 93
  can1  000023F0   [8]  1D 33 E9 57 BA 75 ED B2
  can1  000023F0   [8]  DC 79 2E 93 B6 3C C4 E3
  can1  000023F0   [8]  67 4E 2B 6F 4B 8A 59 AD
  can1  000023F0   [8]  91 E2 BD F2 C7 F7 7C BA
  can1  000023F0   [8]  63 B9 A2 D6 93 91 FF 00
  can1  000023F0   [8]  1F 7F F8 ED 41 F6 59 01
  can1  000023F0   [8]  E6 FD 7F EF 93 41 3C C2
  can1  000023F0   [8]  A8 64 96 00 3F E4 24 99
  can1  000023F0   [8]  FF 00 69 68 B9 5F 22 9C
  can1  000023F0   [8]  D3 D9 B4 79 6D 53 FE F9
  can1  000023F0   [8]  4C D5 09 27 D3 BF E8 2B
  can1  000023F0   [8]  21 FF 00 B6 55 2D 81 4A
  can1  000023F0   [8]  00 BE 2A AB DD 69 C3 AD
  can1  000023F0   [8]  E4 FF 00 F7 EE 8D 40 85
  can1  000023F0   [8]  AE 2D BA C5 74 31 FE DF
  can1  000023F0   [8]  15 24 32 B7 DA 92 3B A6
  can1  000023F0   [8]  F2 ED A4 1F EB 94 64 0A
  can1  000023F0   [8]  62 33 75 5F 06 DB 4B 76
  can1  000023F0   [8]  91 DB 9B 39 6E 0C 0D 3C
  can1  000023F0   [8]  EF 92 36 27 6A E2 75 5D
  can1  000023F0   [8]  30 69 9A 8F 92 0B 15 6C
  can1  000023F0   [8]  91 B8 60 8A A9 21 14 5A
  can1  000023F0   [8]  A2 CE 4D 43 11 23 49 9E
  can1  000023F0   [8]  14 71 49 E6 62 80 1F 6A
  can1  000023F0   [8]  BE 6C F8 3C 81 CB 56 C6
  can1  000023F0   [8]  A0 8B 1D BC 71 63 0D 8F
  can1  000023F0   [8]  9A 9A EE 32 25 B7 51 18
  can1  000023F0   [8]  A8 DA 21 9A 43 1A C3 15
  can1  000023F0   [8]  52 4E B4 08 EB C3 54 A0
  can1  000023F0   [8]  F1 54 03 85 48 1A 98 13
  can1  000023F0   [8]  29 AB D0 30 C5 20 35 2D
  can1  000023F0   [8]  6E 76 A9 5F 5A 9A 4B 86
  can1  000023F0   [8]  58 B6 7F 05 03 33 EE BE
  can1  000023F0   [8]  68 CF 19 53 C1 AC 3D F2
  can1  000023F0   [8]  5A 4E B2 A6 3C C8 9B 2B
  can1  000023F0   [8]  4A 5A 86 C5 6D 62 FE EB
  can1  000023F0   [8]  57 BA 8A E2 F4 86 92 15
  can1  000023F0   [8]  64 5C 7F 74 9C D2 E9 57
  can1  000023F0   [8]  29 1C A6 DA F0 9F B1 5C
  can1  000023F0   [8]  7C B2 63 F8 0F 67 A4 BD
  can1  000023F0   [8]  D8 E8 0E FD 03 CB 8D 2E
  can1  000023F0   [8]  27 85 25 13 20 6E 25 FE
  can1  000023F0   [8]  F7 BD 31 D1 A2 C6 E1 C1
  can1  000023F0   [8]  EF 4D 08 61 6E 72 B5 DD
  can1  000023F0   [8]  7C 37 99 4D 95 F4 21 B1
  can1  000023F0   [8]  74 3A 6F 10 3A FF 00 66
  can1  000023F0   [8]  32 71 E6 16 1B 7D B9 AE
  can1  000023F0   [8]  77 ED 65 65 30 96 95 63
  can1  000023F0   [8]  1D 7C AE 06 7D 28 E8 49
  can1  000023F0   [8]  CC 98 CE 1A 79 1A A3 3A
  can1  000023F0   [8]  92 A7 11 D8 43 E6 E7 02
  can1  000023F0   [8]  36 32 53 93 77 DC 64 2F
  can1  000023F0   [8]  AE ED 78 95 B4 EB 66 F3
  can1  000023F0   [8]  17 3F C5 D7 D2 A0 93 C4
  can1  000023F0   [8]  51 02 51 A0 B2 07 DA 06
  can1  000023F0   [8]  6A 12 93 EA 57 BA 50 B8
  can1  000023F0   [8]  F1 13 95 CC 16 36 AC 4F
  can1  000023F0   [8]  48 FC 8C 0A 81 B5 5B FC
  can1  000023F0   [8]  F1 15 8C 6A 48 50 4D AF
  can1  000023F0   [8]  19 A3 5E A4 BE 53 3F FE
  can1  000023F0   [8]  12 3D 52 4D 56 DB 4F B7
  can1  000023F0   [8]  5B 48 DF 96 9D DA D5 31
  can1  000023F0   [8]  8E 2A A4 DE 30 D5 25 BD
  can1  000023F0   [8]  92 34 96 28 13 3F 2A 88
  can1  000023F0   [8]  55 B8 A4 4D 91 51 7C 4D
  can1  000023F0   [8]  AA CD 33 EE BA 38 4E B9
  can1  000023F0   [8]  85 3E 61 53 E9 3E 32 92
  can1  000023F0   [8]  29 5D 2F 6D A3 7B 79 37
  can1  000023F0   [8]  07 61 C6 33 4A D1 B6 80
  can1  000023F0   [8]  75 97 F0 C8 D2 7D 99 20
  can1  000023F0   [8]  8A E2 0B 98 63 FB FC 02
  can1  000023F0   [8]  00 AE 37 C4 97 72 5E 78
  can1  000023F0   [8]  86 E7 CE 40 AD 6F FB 9D
  can1  000023F0   [8]  AA 73 8C 50 8A B9 8B 28
  can1  000023F0   [8]  26 AB 1E 28 10 03 8A 42
  can1  000023F0   [8]  68 11 A3 A6 46 F1 EF 9B
  can1  000023F0   [8]  B3 2F 41 E9 52 DD 5C B4
  can1  000023F0   [8]  1E E6 97 ED 34 AC 31 77
  can1  000023F0   [8]  E4 54 2D 40 1D 67 7A 91
  can1  000023F0   [8]  1A 98 31 C2 A4 1D 6A C4
  can1  000023F0   [8]  49 BB 15 2A 4D 48 66 9D
  can1  000023F0   [8]  8B EE 35 D5 2D 9A 5D E9
  can1  000023F0   [8]  D2 41 16 37 6D CA FD 68
  can1  000023F0   [8]  5B 8C C0 91 04 6D 87 3F
  can1  000023F0   [8]  2E 70 DE D5 81 7C AD F6
  can1  000023F0   [8]  89 51 BE F2 9E DD C5 02
  can1  000023F0   [8]  33 24 A6 05 E3 77 7A 9B
  can1  000023F0   [8]  01 22 7A F4 C5 58 59 07
  can1  000023F0   [8]  DD 6F B8 69 8C 8C A7 97
  can1  000023F0   [8]  F2 1C FB 56 CF 84 07 FC
  can1  000023F0   [8]  4F 27 56 1F F2 E4 DC FF
  can1  000023F0   [8]  00 C0 D2 93 08 9D 37 88
  can1  000023F0   [8]  EF 92 C8 42 33 B7 CD DC
  can1  000023F0   [8]  85 F6 E7 68 EE 6B 97 F3
  can1  000023F0   [8]  AD DD 9B CB 90 32 96 6D
  can1  000023F0   [8]  BF E3 5A 58 5D 4B 97 33
  can1  000023F0   [8]  27 D8 FC B8 E7 1B CB 2E
  can1  000023F0   [8]  D3 BA AA 5E 5D 3F EE 63
  can1  000023F0   [8]  12 23 30 3C C8 BC B5 4F
  can1  000023F0   [8]  98 EC 56 8A ED 3E D9 1D
  can1  000023F0   [8]  C3 E1 36 B0 45 0C 32 9C
  can1  000023F0   [8]  F1 9A D4 BD D4 FC 9B 66
  can1  000023F0   [8]  9F 87 45 3B 3E 48 B1 CF
  can1  000023F0   [8]  F7 AB 35 B8 ED 74 43 06
  can1  000023F0   [8]  A3 72 D1 C4 D0 44 1C 4C
  can1  000023F0   [8]  48 0A D2 85 DB 8A A7 AD
  can1  000023F0   [8]  34 BF F0 8E 37 9E C1 5F
  can1  000023F0   [8]  CD 4C FC DC 0E B5 51 7A
  can1  000023F0   [8]  89 A3 82 79 24 8F 58 91
  can1  000023F0   [8]  BC E6 2F B3 6E E1 27 5E
  can1  000023F0   [8]  95 50 1F F4 D3 F4 A5 22
  can1  000023F0   [8]  46 42 FF 00 BD 94 FA D3
  can1  000023F0   [8]  2D BE 70 68 03 D3 3C 37
  can1  000023F0   [8]  3C 97 3A 36 92 F2 C8 D2
  can1  000023F0   [8]  32 86 8B 73 72 70 1A B8
  can1  000023F0   [8]  CB F6 DF AE EA 4E 7B DD
  can1  000023F0   [8]  49 FC E9 8C 7C D6 32 46
  can1  000023F0   [8]  A3 23 2D 8C B0 FE ED 67
  can1  000023F0   [8]  4B 0E 28 62 29 37 5A 41
  can1  000023F0   [8]  C9 C1 EF 48 0D B4 6D B6
  can1  000023F0   [8]  E6 81 8D DD 4F 5C D0 22
  can1  000023F0   [8]  C2 53 A8 19 D3 96 A7 23
  can1  000023F0   [8]  53 02 DA E3 15 28 5A A1
  can1  000023F0   [8]  0D 93 81 50 AE EA 60 6B
  can1  000023F0   [8]  69 A1 99 87 BD 7A 56 8F
  can1  000023F0   [8]  02 C5 62 9E B4 98 CE 4F
  can1  000023F0   [8]  C4 C7 66 AF 21 1F 76 4F
  can1  000023F0   [8]  E6 2B 1D E0 FB 5C 05 94
  can1  000023F0   [8]  8F B4 46 3E 5C FF 00 10
  can1  000023F0   [8]  F4 A6 C4 63 3A 09 5C 1E
  can1  000023F0   [8]  47 B5 27 93 83 CE 68 18
  can1  000023F0   [8]  C9 17 14 D5 18 A4 05 81
  can1  000023F0   [8]  21 64 D9 D4 56 8F 86 78
  can1  000023F0   [8]  F1 06 3B 35 9C DF CD 6A
  can1  000023F0   [8]  58 D1 AD E3 62 51 F4 B6
  can1  000023F0   [8]  0B BB 73 48 A4 63 D8 1A
  can1  000023F0   [8]  E3 6E F5 3B 6B 28 4A CD
  can1  000023F0   [8]  BB CE EA B1 AE 39 15 4D
  can1  000023F0   [8]  88 C7 8F 5F BB 6D 4E 39
  can1  000023F0   [8]  59 D2 1B 7D FF 00 32 84
  can1  000023F0   [8]  DC 40 AD 61 E2 1D 3F 78
  can1  000023F0   [8]  DD 33 7A 7F A9 22 A7 94
  can1  000023F0   [8]  4B 72 EC 52 2B DC A6 E5
  can1  000023F0   [8]  68 FE 61 82 BF C1 EF 5B
  can1  000023F0   [8]  AF 23 CB 7D E6 31 DF 1B
  can1  000023F0   [8]  D8 B2 B1 94 6D 19 C8 A5
  can1  000023F0   [8]  64 51 9D 6F 24 12 C6 24
  can1  000023F0   [8]  5B 48 84 BB CA 7F A2 61
  can1  000023F0   [8]  B8 CF 5A CB BB BF 92 EF
  can1  000023F0   [8]  40 BD 6B 88 80 DB 76 83
  can1  000023F0   [8]  0B D0 51 1B AD 4A DC E3
  can1  000023F0   [8]  A6 FD C5 CF 9A 3E 60 0E
  can1  000023F0   [8]  0E 3D 2A 38 E3 49 2E D6
  can1  000023F0   [8]  49 0B F9 59 CB EC EB 8A
  can1  000023F0   [8]  A2 06 08 62 59 58 95 63
  can1  000023F0   [8]  1E 0E 17 7D 3A DE DE 47
  can1  000023F0   [8]  05 2D C1 27 F8 9B 1C 25
  can1  000023F0   [8]  2D C0 F4 5F 0C AC 31 E9
  can1  000023F0   [8]  B6 0B 6E CC F0 86 3B 4B
  can1  000023F0   [8]  75 3F 35 70 BB B7 DD DD
  can1  000023F0   [8]  31 FE 29 DC FF 00 E3 C6
  can1  000023F0   [8]  80 37 ED AE A0 16 BF BC
  can1  000023F0   [8]  1E 63 F7 F7 AC 9B 80 65
  can1  000023F0   [8]  2C CD 80 7D 17 A5 30 32
  can1  000023F0   [8]  A7 8F 8C AD 32 28 8F 53
  can1  000023F0   [8]  52 21 F7 92 15 8C 46 2A
  can1  000023F0   [8]  9A D0 04 E9 56 A3 5A 00
  can1  000023F0   [8]  96 92 8D 80 E9 8D 20 EB
  can1  000023F0   [8]  4C 77 2D 44 6A E2 55 00
  can1  000023F0   [8]  E1 16 F3 57 ED 74 DF 33
  can1  000023F0   [8]  18 14 80 DD 5D 35 74 EB
  can1  000023F0   [8]  7D CE 57 7D 42 75 3B E5
  can1  000023F0   [8]  5F F8 F8 22 3F 4A 62 2B
  can1  000023F0   [8]  C7 71 05 FD EC 09 37 CF
  can1  000023F0   [8]  1C AF B0 F3 D3 35 05 F5
  can1  000023F0   [8]  68 9F 1F 7D 6A 8A 2A DE
  can1  000023F0   [8]  40 A5 8D D4 3F 75 BE F8
  can1  000023F0   [8]  C7 43 4C B5 B7 17 01 89
  can1  000023F0   [8]  38 C5 22 51 5E 5B 7E A7
  can1  000023F0   [8]  06 A9 3A 7C C7 14 01 11
  can1  000023F0   [8]  46 3D 2B 63 C3 4C 46 BB
  can1  000023F0   [8]  0E FE 77 47 22 FE 95 23
  can1  000023F0   [8]  35 FC 71 CE 9B A6 CA 0E
  can1  000023F0   [8]  36 DC E3 3F 55 AE 12 F3
  can1  000023F0   [8]  4A B5 BE 0C 61 D9 0D CF
  can1  000023F0   [8]  79 14 FC A6 A8 0C C8 34
  can1  000023F0   [8]  5B D1 74 1A 5B 43 2D B4
  can1  000023F0   [8]  72 81 23 06 C6 46 6B 79
  can1  000023F0   [8]  F4 FD 03 90 9E 1F D8 7D
  can1  000023F0   [8]  7F B4 A4 6A 9B CB EC 94
  can1  000023F0   [8]  94 46 96 F9 C7 DF 1B 7D
  can1  000023F0   [8]  1F 9A D7 B8 D5 E2 F9 BC
  can1  000023F0   [8]  BB A1 BB CB 38 F3 BE 65
  can1  000023F0   [8]  1F EC D2 11 52 3B FB 2B
  can1  000023F0   [8]  4B 77 FD E8 CA 8D C7 6A
  can1  000023F0   [8]  F5 3E 95 43 54 D4 EC A6
  can1  000023F0   [8]  D3 2F 20 85 B7 4B 2C A8
  can1  000023F0   [8]  D9 54 3F 3E 3B D2 11 CD
  can1  000023F0   [8]  49 F3 76 FC 2A 99 80 83
  can1  000023F0   [8]  FB B7 2B 40 86 6C 93 BC
  can1  000023F0   [8]  95 21 66 8E 06 45 24 0C
  can1  000023F0   [8]  7C D8 FE 2A 36 03 D1 B4
  can1  000023F0   [8]  65 31 D9 69 88 42 A9 58
  can1  000023F0   [8]  50 9D BD 3A 57 9F 40 F9
  can1  000023F0   [8]  42 FF 00 DE 62 7F 5A 60
  can1  000023F0   [8]  5D B6 97 0D CF 4A 92 ED
  can1  000023F0   [8]  B2 A1 A3 A4 05 58 13 84
  can1  000023F0   [8]  7E C4 E3 6D 4B 3A A8 05
  can1  000023F0   [8]  95 07 99 8E 3D A9 8C CA
  can1  000023F0   [8]  6D ED 09 CB 0E 3B 11 CD
  can1  000023F0   [8]  40 8B CD 21 17 23 8F 8C
  can1  000023F0   [8]  D4 83 E5 A2 C0 4B BA 92
  can1  000023F0   [8]  98 1D 37 6A 55 E6 99 44
  can1  000023F0   [8]  89 C3 55 A5 6E 68 42 34
  can1  000023F0   [8]  6D 7A 56 8C 17 DF 65 E4
  can1  000023F0   [8]  7D FE D4 C0 8A 46 9A E9
  can1  000023F0   [8]  FC CB 89 0B 7A 0A 86 E6
  can1  000023F0   [8]  7C 46 54 50 22 EF 86 AD
  can1  000023F0   [8]  FC A9 22 DD 6B 2C D7 8C
  can1  000023F0   [8]  FB E2 F9 C2 AA 81 DE BA
  can1  000023F0   [8]  ED 73 48 B7 D6 22 49 19
  can1  000023F0   [8]  76 DC 44 3F 76 E7 DF B5
  can1  000023F0   [8]  5A EE 07 30 8A 21 8A 5B
  can1  000023F0   [8]  66 B7 DB B4 90 D1 BF 35
  can1  000023F0   [8]  98 6D DE DC F9 96 D9 68
  can1  000023F0   [8]  BA 6C EE 28 68 0D 42 2D
  can1  000023F0   [8]  AE 34 C5 00 7E F5 7E F7
  can1  000023F0   [8]  8D AD F0 D5 77 48 02 3D
  can1  000023F0   [8]  42 26 F7 A4 33 5B C4 96
  can1  000023F0   [8]  CD 7F E1 BF 2A 2F BF 0C
  can1  000023F0   [8]  AB 32 8C E3 38 EB 5C 6D
  can1  000023F0   [8]  BA F9 D7 69 6F BD 37 E7
  can1  000023F0   [8]  6E 69 BD 87 72 F7 D8 D9
  can1  000023F0   [8]  1A 65 0D 9F 24 02 4E DF
  can1  000023F0   [8]  5A 12 D7 73 38 DE A3 1B
  can1  000023F0   [8]  3B 67 3B 86 6B 3D 40 A9
  can1  000023F0   [8]  2D BE 63 42 5B EF 36 3A
  can1  000023F0   [8]  71 50 3D 8A 86 65 92 E3
  can1  000023F0   [8]  E4 09 E6 1F 29 79 A6 04
  can1  000023F0   [8]  09 69 03 45 08 67 94 48
  can1  000023F0   [8]  F2 F9 63 A6 0F 3D 6A 3F
  can1  000023F0   [8]  B1 D9 F9 BB 8F DA 9A 0F
  can1  000023F0   [8]  2F 76 46 03 67 38 C5 2F
  can1  000023F0   [8]  20 D4 C6 B6 8F ED 17 31
  can1  000023F0   [8]  20 C8 F3 1B BF 61 57 2D
  can1  000023F0   [8]  F4 D2 F7 12 B3 7E EE 24
  can1  000023F0   [8]  97 68 47 43 96 E3 34 31
  can1  000023F0   [8]  0C B8 B5 B6 4D 1F CC 58
  can1  000023F0   [8]  53 CC 28 84 48 7E F7 3D
  can1  000023F0   [8]  69 DA 36 93 FD A0 86 59
  can1  000023F0   [8]  01 D3 4D 78 B6 30 CF 23
  can1  000023F0   [8]  E0 6C 85 B6 0C E3 B5 79
  can1  000023F0   [8]  E5 B1 DB 6E A9 ED 53 CA
  can1  000023F0   [8]  03 FC CC 56 BE 9D 69 2C
  can1  000023F0   [8]  C9 98 BE 6A 04 5B BC B6
  can1  000023F0   [8]  10 7E F7 EE 1C 0F DD 9A
  can1  000023F0   [8]  C5 FB 49 69 4B 1E F5 4C
  can1  000023F0   [8]  08 EE C4 6E 37 A9 C3 0A
  can1  000023F0   [8]  AF 1F CC E0 1E 2A 06 5F
  can1  000023F0   [8]  0C 61 F9 58 54 25 F7 BD
  can1  000023F0   [8]  31 12 95 C2 E6 85 3E B4
  can1  000023F0   [8]  0C E8 D1 B3 D6 95 9B 9E
  can1  000023F0   [8]  28 19 24 64 37 15 6E 18
  can1  000023F0   [8]  F2 D5 42 2D 89 3C BE 29
  can1  000023F0   [8]  D1 3F CD 96 A6 C0 DA B6
  can1  000023F0   [8]  48 8C 79 79 00 A7 69 F6
  can1  000023F0   [8]  09 35 EF 99 2F CF 10 6F
  can1  000023F0   [8]  97 1F C5 48 66 F5 EF 93
  can1  000023F0   [8]  67 65 24 AD B2 11 D1 D8
  can1  000023F0   [8]  2F DA 65 8C 89 DC 6F 8D
  can1  000023F0   [8]  7F F4 1A D7 44 1A 11 EA
  can1  000023F0   [8]  30 DB EA 20 48 62 9A DA
  can1  000023F0   [8]  F0 65 53 CC 5C 6E F6 AC
  can1  000023F0   [8]  3B 1D 16 F2 EF CD 7E 22
  can1  000023F0   [8]  68 CE 0C 4C 39 35 5F 67
  can1  000023F0   [8]  51 58 CE BA B3 95 25 7F
  can1  000023F0   [8]  E1 91 0E 0A D5 78 5D 50
  can1  000023F0   [8]  95 97 86 AC 98 14 2E A6
  can1  000023F0   [8]  1E 6B 0E D4 DB 59 DE 29
  can1  000023F0   [8]  96 48 D0 C8 C8 73 B0 77
  can1  000023F0   [8]  A9 19 D7 DC BC 96 DA 2A
  can1  000023F0   [8]  5F F9 0F E4 93 EA 09 15
  can1  000023F0   [8]  CB DF F8 6D 65 95 2E 2C
  can1  000023F0   [8]  64 55 27 E7 65 90 71 EA
  can1  000023F0   [8]  2A FA 00 C1 A5 EB 28 F7
  can1  000023F0   [8]  2C DF 67 2D 70 FB F9 94
  can1  000023F0   [8]  62 9A 34 FD 64 48 0F 97
  can1  000023F0   [8]  6E 3E 45 5E 65 5E DD 0D
  can1  000023F0   [8]  1C 91 EE 2E 66 46 FA 16
  can1  000023F0   [8]  A9 2D A1 B7 7F B2 04 63
  can1  000023F0   [8]  B9 BF 7A 0F 34 E8 7C 35
  can1  000023F0   [8]  AD CD 78 F3 41 3D 9F 9C
  can1  000023F0   [8]  CB B4 8F 38 63 14 B9 57
  can1  000023F0   [8]  70 E6 7D 89 8F 81 BC 44
  can1  000023F0   [8]  6D 96 1F B5 D8 46 AA DB
  can1  000023F0   [8]  B9 9A A9 4F E1 9D 52 DE
  can1  000023F0   [8]  E9 8C BA A4 7E 7E 36 B1
  can1  000023F0   [8]  8F 79 CD 3D 05 72 A4 5E
  can1  000023F0   [8]  12 B9 52 19 2F 67 56 1F
  can1  000023F0   [8]  C5 1C 44 54 9F F0 88 8F
  can1  000023F0   [8]  F9 6D 7D 7A C4 FD EE 83
  can1  000023F0   [8]  35 2E C3 4C 91 3C 2B A5
  can1  000023F0   [8]  42 83 F7 0F 33 FA CD 27
  can1  000023F0   [8]  15 AE 18 5B 5B FD C0 90
  can1  000023F0   [8]  EE E1 17 E5 E7 D2 95 C0
  can1  000023F0   [8]  C0 D7 EE D6 5D 56 D7 56
  can1  000023F0   [8]  B6 B2 8A D2 D4 C2 43 C4
  can1  000023F0   [8]  DB 5C 76 15 C1 B3 0F 31
  can1  000023F0   [8]  F6 63 6E E3 8C 52 93 D4
  can1  000023F0   [8]  56 1C 99 6A DD D0 F5 19
  can1  000023F0   [8]  2C 52 45 28 1D 49 CA FB
  can1  000023F0   [8]  1A 40 55 BB BF 96 EE 66
  can1  000023F0   [8]  96 72 73 D9 7D 2B 3E 49
  can1  000023F0   [8]  3F BB 40 0F 88 EE 52 19
  can1  000023F0   [8]  73 40 8E 84 80 90 EE 03
  can1  000023F0   [8]  CB 7C F1 EB DA A3 FB AD
  can1  000023F0   [8]  43 56 76 02 4D F4 9B E9
